;$STARTTIME=20402.9816030417
;
;   Start time: 11-11-2025 05:03:30.502.0
;   Generated by PCAN-View v5.0.1.007
;
;   Message Number
;   |         Time Offset (ms)
;   |         |        Type
;   |         |        |        ID (hex)
;   |         |        |        |     Data Length
;   |         |        |        |     |   Data Bytes (hex) ...
;   |         |        |        |     |   |
;---+--   ----+----  --+--  ----+---  +  -+ -- -- -- -- -- -- --
     1)         0.9  Rx         0107  8  02 88 01 C2 00 00 00 00 
     2)         1.5  Rx         0106  8  00 00 00 00 00 00 00 00 
     3)         2.0  Rx         0258  8  00 00 00 00 00 00 00 00 
     4)         2.5  Rx         0259  8  00 00 00 00 00 00 00 00 
     5)         3.0  Rx         0260  8  00 0C 00 00 00 00 00 00 
     6)         3.5  Rx         07A1  8  02 01 00 00 00 08 01 01 
     7)         3.9  Rx         07A2  8  02 03 02 01 00 00 00 00 
     8)         4.4  Rx         012F  8  02 02 01 00 00 00 00 00 
     9)         4.9  Rx         0110  8  18 79 00 00 E4 F4 FF FF 
    10)         5.3  Rx         0109  8  B6 24 10 27 02 00 52 02 
    11)         5.9  Rx         012C  8  E8 80 E8 80 00 00 01 00 
    12)         6.3  Rx         0156  8  14 0A B8 0B 00 00 00 00 
    13)         6.8  Rx         011C  8  84 03 84 03 00 00 00 00 
    14)         7.3  Rx         012A  8  40 06 B2 07 00 00 08 00 
    15)         7.8  Rx         0108  8  10 0E 41 00 2D 00 CD 00 
    16)         8.2  Rx         012B  8  00 00 CB 20 CA 20 00 00 
    17)         8.8  Rx         012E  8  00 00 00 00 00 00 00 00 
    18)         9.2  Rx         0113  8  E8 80 E8 80 E8 80 E8 80 
    19)         9.7  Rx         0114  8  E8 80 E8 80 E8 80 E8 80 
    20)        10.1  Rx         0115  8  E8 80 E8 80 E8 80 E8 80 
    21)        10.6  Rx         0116  8  E8 80 E8 80 E8 80 E8 80 
    22)        11.1  Rx         0117  8  E8 80 E8 80 00 00 00 00 
    23)        11.5  Rx         0112  8  19 19 19 19 19 19 54 24 
    24)        12.0  Rx         014E  8  19 19 00 19 19 00 00 00 
    25)        12.5  Rx         012D  8  19 19 19 19 19 19 00 00 
    26)        13.0  Rx         0150  8  00 00 00 00 00 00 00 00 
    27)        13.4  Rx         07A3  8  02 01 01 08 00 00 00 00 
    28)        35.9  Tx         0602  8  00 00 00 00 00 00 01 00 
    29)       136.1  Tx         0602  8  00 00 00 00 00 00 01 00 
    30)       144.9  Rx         0300  8  E4 0C E4 0C E4 0C E4 0C 
    31)       155.7  Rx         0301  8  E4 0C E4 0C E4 0C E4 0C 
    32)       166.0  Rx         0302  8  E4 0C E4 0C E4 0C E4 0C 
    33)       176.5  Rx         0303  8  E4 0C E4 0C E4 0C E4 0C 
    34)       187.1  Rx         0304  8  E4 0C E4 0C B1 0C B2 0C 
    35)       197.8  Rx         0306  8  19 19 19 19 19 19 19 19 
    36)       208.2  Rx         0307  8  19 19 19 19 19 19 19 19 
    37)       218.8  Rx         0305  8  00 00 00 00 00 00 00 00 
    38)       236.4  Tx         0602  8  00 00 00 00 00 00 01 00 
    39)       290.9  Rx         0107  8  02 88 01 C2 00 00 00 00 
    40)       291.4  Rx         0106  8  00 00 00 00 00 00 00 00 
    41)       291.9  Rx         0258  8  00 00 00 00 00 00 00 00 
    42)       292.4  Rx         0259  8  00 00 00 00 00 00 00 00 
    43)       292.9  Rx         0260  8  00 0C 00 00 00 00 00 00 
    44)       293.4  Rx         07A1  8  02 01 00 00 00 08 01 01 
    45)       293.9  Rx         07A2  8  02 03 02 01 00 00 00 00 
    46)       294.3  Rx         012F  8  02 02 01 00 00 00 00 00 
    47)       294.8  Rx         0110  8  18 79 00 00 E4 F4 FF FF 
    48)       295.3  Rx         0109  8  B6 24 10 27 03 00 52 02 
    49)       295.8  Rx         012C  8  E8 80 E8 80 00 00 01 00 
    50)       296.3  Rx         0156  8  14 0A B8 0B 00 00 00 00 
    51)       296.7  Rx         011C  8  84 03 84 03 00 00 00 00 
    52)       297.2  Rx         012A  8  40 06 B2 07 00 00 08 00 
    53)       297.7  Rx         0108  8  10 0E 41 00 2D 00 CD 00 
    54)       298.2  Rx         012B  8  00 00 CD 20 CC 20 00 00 
    55)       298.7  Rx         012E  8  00 00 00 00 00 00 00 00 
    56)       299.2  Rx         0113  8  E8 80 E8 80 E8 80 E8 80 
    57)       299.6  Rx         0114  8  E8 80 E8 80 E8 80 E8 80 
    58)       300.1  Rx         0115  8  E8 80 E8 80 E8 80 E8 80 
    59)       300.5  Rx         07A3  8  02 01 01 08 00 00 00 00 
    60)       301.0  Rx         0116  8  E8 80 E8 80 E8 80 E8 80 
    61)       302.0  Rx         0117  8  E8 80 E8 80 00 00 00 00 
    62)       302.4  Rx         0112  8  19 19 19 19 19 19 54 24 
    63)       302.9  Rx         014E  8  19 19 00 19 19 00 00 00 
    64)       303.4  Rx         012D  8  19 19 19 19 19 19 00 00 
    65)       304.5  Rx         0150  8  00 00 00 00 00 00 00 00 
    66)       336.8  Tx         0602  8  00 00 00 00 00 00 01 00 
    67)       436.5  Tx         0602  8  00 00 00 00 00 00 01 00 
    68)       519.5  Rx         0300  8  E4 0C E4 0C E4 0C E4 0C 
    69)       530.2  Rx         0301  8  E4 0C E4 0C E4 0C E4 0C 
    70)       536.4  Tx         0602  8  00 00 00 00 00 00 01 00 
    71)       540.6  Rx         0302  8  E4 0C E4 0C E4 0C E4 0C 
    72)       551.0  Rx         0303  8  E4 0C E4 0C E4 0C E4 0C 
    73)       561.3  Rx         0304  8  E4 0C E4 0C B1 0C B2 0C 
    74)       571.7  Rx         0306  8  19 19 19 19 19 19 19 19 
    75)       582.2  Rx         0307  8  19 19 19 19 19 19 19 19 
    76)       593.1  Rx         0305  8  00 00 00 00 00 00 00 00 
    77)       599.2  Rx         0107  8  02 88 01 C2 00 00 00 00 
    78)       599.7  Rx         0106  8  00 00 00 00 00 00 00 00 
    79)       600.2  Rx         0258  8  00 00 00 00 00 00 00 00 
    80)       600.7  Rx         0259  8  00 00 00 00 00 00 00 00 
    81)       601.2  Rx         0260  8  00 0C 00 00 00 00 00 00 
    82)       601.7  Rx         07A1  8  02 01 00 00 00 08 01 01 
    83)       602.2  Rx         07A2  8  02 03 02 01 00 00 00 00 
    84)       602.7  Rx         012F  8  02 02 01 00 00 00 00 00 
    85)       603.2  Rx         0110  8  18 79 00 00 E4 F4 FF FF 
    86)       603.6  Rx         0109  8  B6 24 10 27 03 00 52 02 
    87)       604.1  Rx         012C  8  E8 80 E8 80 00 00 01 00 
    88)       604.6  Rx         0156  8  14 0A B8 0B 00 00 00 00 
    89)       605.0  Rx         011C  8  84 03 84 03 00 00 00 00 
    90)       605.6  Rx         012A  8  40 06 B2 07 00 00 08 00 
    91)       606.0  Rx         0108  8  10 0E 41 00 2D 00 CD 00 
    92)       606.5  Rx         012B  8  00 00 D0 20 CF 20 00 00 
    93)       607.0  Rx         012E  8  00 00 00 00 00 00 00 00 
    94)       607.5  Rx         0113  8  E8 80 E8 80 E8 80 E8 80 
    95)       607.9  Rx         0114  8  E8 80 E8 80 E8 80 E8 80 
    96)       608.4  Rx         0115  8  E8 80 E8 80 E8 80 E8 80 
    97)       608.8  Rx         0116  8  E8 80 E8 80 E8 80 E8 80 
    98)       609.4  Rx         0117  8  E8 80 E8 80 00 00 00 00 
    99)       609.8  Rx         0112  8  19 19 19 19 19 19 54 24 
   100)       610.2  Rx         014E  8  19 19 00 19 19 00 00 00 
   101)       610.7  Rx         012D  8  19 19 19 19 19 19 00 00 
   102)       611.2  Rx         0150  8  00 00 00 00 00 00 00 00 
   103)       611.7  Rx         07A3  8  02 01 01 08 00 00 00 00 
   104)       636.1  Tx         0602  8  00 00 00 00 00 00 01 00 
   105)       736.5  Tx         0602  8  00 00 00 00 00 00 01 00 
   106)       836.5  Tx         0602  8  00 00 00 00 00 00 01 00 
   107)       889.2  Rx         0107  8  02 88 01 C2 00 00 00 00 
   108)       889.7  Rx         0106  8  00 00 00 00 00 00 00 00 
   109)       890.2  Rx         0258  8  00 00 00 00 00 00 00 00 
   110)       890.7  Rx         0259  8  00 00 00 00 00 00 00 00 
   111)       891.2  Rx         0260  8  00 0C 00 00 00 00 00 00 
   112)       891.7  Rx         07A1  8  02 01 00 00 00 08 01 01 
   113)       892.2  Rx         07A2  8  02 03 02 01 00 00 00 00 
   114)       892.7  Rx         012F  8  02 02 01 00 00 00 00 00 
   115)       893.2  Rx         0110  8  18 79 00 00 E4 F4 FF FF 
   116)       893.8  Rx         0300  8  E4 0C E4 0C E4 0C E4 0C 
   117)       893.8  Rx         0109  8  B6 24 10 27 03 00 52 02 
   118)       894.1  Rx         012C  8  E8 80 E8 80 00 00 01 00 
   119)       894.6  Rx         0156  8  14 0A B8 0B 00 00 00 00 
   120)       895.1  Rx         011C  8  84 03 84 03 00 00 00 00 
   121)       895.6  Rx         012A  8  40 06 B2 07 00 00 08 00 
   122)       896.0  Rx         0108  8  10 0E 41 00 2D 00 CD 00 
   123)       896.5  Rx         012B  8  00 00 D2 20 D1 20 00 00 
   124)       897.0  Rx         012E  8  00 00 00 00 00 00 00 00 
   125)       897.5  Rx         0113  8  E8 80 E8 80 E8 80 E8 80 
   126)       897.9  Rx         0114  8  E8 80 E8 80 E8 80 E8 80 
   127)       898.4  Rx         0115  8  E8 80 E8 80 E8 80 E8 80 
   128)       898.8  Rx         0116  8  E8 80 E8 80 E8 80 E8 80 
   129)       899.4  Rx         0117  8  E8 80 E8 80 00 00 00 00 
   130)       899.8  Rx         0112  8  19 19 19 19 19 19 54 24 
   131)       900.2  Rx         014E  8  19 19 00 19 19 00 00 00 
   132)       900.7  Rx         012D  8  19 19 19 19 19 19 00 00 
   133)       901.2  Rx         0150  8  00 00 00 00 00 00 00 00 
   134)       902.2  Rx         07A3  8  02 01 01 08 00 00 00 00 
   135)       904.4  Rx         0301  8  E4 0C E4 0C E4 0C E4 0C 
   136)       915.0  Rx         0302  8  E4 0C E4 0C E4 0C E4 0C 
   137)       925.7  Rx         0303  8  E4 0C E4 0C E4 0C E4 0C 
   138)       936.2  Rx         0304  8  E4 0C E4 0C B2 0C B2 0C 
   139)       937.4  Tx         0602  8  00 00 00 00 00 00 01 00 
   140)       946.7  Rx         0306  8  19 19 19 19 19 19 19 19 
   141)       957.0  Rx         0307  8  19 19 19 19 19 19 19 19 
   142)       967.3  Rx         0305  8  00 00 00 00 00 00 00 00 
   143)      1036.3  Tx         0602  8  00 00 00 00 00 00 01 00 
   144)      1135.9  Tx         0602  8  00 00 00 00 00 00 01 00 
   145)      1198.2  Rx         0107  8  02 88 01 C2 00 00 00 00 
   146)      1198.7  Rx         0106  8  00 00 00 00 00 00 00 00 
   147)      1199.2  Rx         0258  8  00 00 00 00 00 00 00 00 
   148)      1199.7  Rx         0259  8  00 00 00 00 00 00 00 00 
   149)      1200.2  Rx         0260  8  00 0C 00 00 00 00 00 00 
   150)      1200.7  Rx         07A1  8  02 01 00 00 00 08 01 01 
   151)      1201.2  Rx         07A2  8  02 03 02 01 00 00 00 00 
   152)      1201.6  Rx         012F  8  02 02 01 00 00 00 00 00 
   153)      1202.1  Rx         0110  8  18 79 00 00 E4 F4 FF FF 
   154)      1202.6  Rx         0109  8  B6 24 10 27 03 00 52 02 
   155)      1203.0  Rx         012C  8  E8 80 E8 80 00 00 01 00 
   156)      1203.6  Rx         0156  8  14 0A B8 0B 00 00 00 00 
   157)      1204.0  Rx         011C  8  84 03 84 03 00 00 00 00 
   158)      1204.5  Rx         012A  8  40 06 B2 07 00 00 08 00 
   159)      1205.0  Rx         0108  8  10 0E 41 00 2D 00 CD 00 
   160)      1205.5  Rx         012B  8  00 00 D4 20 D3 20 00 00 
   161)      1206.0  Rx         012E  8  00 00 00 00 00 00 00 00 
   162)      1206.4  Rx         0113  8  E8 80 E8 80 E8 80 E8 80 
   163)      1206.9  Rx         0114  8  E8 80 E8 80 E8 80 E8 80 
   164)      1207.4  Rx         0115  8  E8 80 E8 80 E8 80 E8 80 
   165)      1207.8  Rx         0116  8  E8 80 E8 80 E8 80 E8 80 
   166)      1208.3  Rx         07A3  8  02 01 01 08 00 00 00 00 
   167)      1214.1  Rx         0117  8  E8 80 E8 80 00 00 00 00 
   168)      1214.5  Rx         0112  8  19 19 19 19 19 19 54 24 
   169)      1215.0  Rx         012D  8  19 19 19 19 19 19 00 00 
   170)      1215.5  Rx         014E  8  19 19 00 19 19 00 00 00 
   171)      1216.0  Rx         0150  8  00 00 00 00 00 00 00 00 
   172)      1237.0  Tx         0602  8  00 00 00 00 00 00 01 00 
   173)      1268.0  Rx         0300  8  E4 0C E4 0C E4 0C E4 0C 
   174)      1278.5  Rx         0301  8  E4 0C E4 0C E4 0C E4 0C 
   175)      1289.2  Rx         0302  8  E4 0C E4 0C E4 0C E4 0C 
   176)      1299.6  Rx         0303  8  E4 0C E4 0C E4 0C E4 0C 
   177)      1310.1  Rx         0304  8  E4 0C E4 0C B2 0C B2 0C 
   178)      1320.5  Rx         0306  8  19 19 19 19 19 19 19 19 
   179)      1331.0  Rx         0307  8  19 19 19 19 19 19 19 19 
   180)      1336.2  Tx         0602  8  00 00 00 00 00 00 01 00 
   181)      1341.3  Rx         0305  8  00 00 00 00 00 00 00 00 
   182)      1436.7  Tx         0602  8  00 00 00 00 00 00 01 00 
   183)      1488.0  Rx         0107  8  02 88 01 C2 00 00 00 00 
   184)      1488.6  Rx         0106  8  00 00 00 00 00 00 00 00 
   185)      1489.0  Rx         0258  8  00 00 00 00 00 00 00 00 
   186)      1489.5  Rx         0259  8  00 00 00 00 00 00 00 00 
   187)      1490.0  Rx         0260  8  00 0C 00 00 00 00 00 00 
   188)      1490.5  Rx         07A1  8  02 01 00 00 00 08 01 01 
   189)      1491.0  Rx         07A2  8  02 03 02 01 00 00 00 00 
   190)      1491.5  Rx         012F  8  02 02 01 00 00 00 00 00 
   191)      1492.0  Rx         0110  8  18 79 00 00 1D F7 FF FF 
   192)      1492.4  Rx         0109  8  B6 24 10 27 03 00 52 02 
   193)      1492.9  Rx         012C  8  E8 80 E8 80 00 00 01 00 
   194)      1493.4  Rx         0156  8  14 0A B8 0B 00 00 00 00 
   195)      1493.9  Rx         011C  8  84 03 84 03 00 00 00 00 
   196)      1494.4  Rx         012A  8  40 06 B2 07 00 00 08 00 
   197)      1494.8  Rx         0108  8  10 0E 41 00 2D 00 CD 00 
   198)      1495.3  Rx         012B  8  00 00 D6 20 D6 20 00 00 
   199)      1495.8  Rx         012E  8  00 00 00 00 00 00 00 00 
   200)      1496.3  Rx         0113  8  E8 80 E8 80 E8 80 E8 80 
   201)      1496.7  Rx         0114  8  E8 80 E8 80 E8 80 E8 80 
   202)      1497.2  Rx         0115  8  E8 80 E8 80 E8 80 E8 80 
   203)      1497.7  Rx         0116  8  E8 80 E8 80 E8 80 E8 80 
   204)      1498.2  Rx         0117  8  E8 80 E8 80 00 00 00 00 
   205)      1498.6  Rx         0112  8  19 19 19 19 19 19 54 24 
   206)      1499.1  Rx         014E  8  19 19 00 19 19 00 00 00 
   207)      1499.6  Rx         012D  8  19 19 19 19 19 19 00 00 
   208)      1500.0  Rx         0150  8  00 00 00 00 00 00 00 00 
   209)      1500.5  Rx         07A3  8  02 01 01 08 00 00 00 00 
   210)      1536.1  Tx         0602  8  00 00 00 00 00 00 01 00 
   211)      1636.1  Tx         0602  8  00 00 00 00 00 00 01 00 
   212)      1642.0  Rx         0300  8  E4 0C E4 0C E4 0C E4 0C 
   213)      1652.8  Rx         0301  8  E4 0C E4 0C E4 0C E4 0C 
   214)      1663.6  Rx         0302  8  E4 0C E4 0C E4 0C E4 0C 
   215)      1674.3  Rx         0303  8  E4 0C E4 0C E4 0C E4 0C 
   216)      1684.7  Rx         0304  8  E4 0C E4 0C B2 0C B3 0C 
   217)      1695.1  Rx         0306  8  19 19 19 19 19 19 19 19 
   218)      1705.9  Rx         0307  8  19 19 19 19 19 19 19 19 
   219)      1716.4  Rx         0305  8  00 00 00 00 00 00 00 00 
   220)      1736.2  Tx         0602  8  00 00 00 00 00 00 01 00 
   221)      1796.4  Rx         0107  8  02 88 01 C2 00 00 00 00 
   222)      1796.9  Rx         0106  8  00 00 00 00 00 00 00 00 
   223)      1797.4  Rx         0258  8  00 00 00 00 00 00 00 00 
   224)      1797.9  Rx         0259  8  00 00 00 00 00 00 00 00 
   225)      1798.4  Rx         0260  8  00 0C 00 00 00 00 00 00 
   226)      1798.9  Rx         07A1  8  02 01 00 00 00 08 01 01 
   227)      1799.4  Rx         07A2  8  02 03 02 01 00 00 00 00 
   228)      1799.8  Rx         012F  8  02 02 01 00 00 00 00 00 
   229)      1800.3  Rx         0110  8  18 79 00 00 1D F7 FF FF 
   230)      1800.8  Rx         0109  8  B6 24 10 27 03 00 52 02 
   231)      1801.3  Rx         012C  8  E8 80 E8 80 00 00 01 00 
   232)      1801.8  Rx         0156  8  14 0A B8 0B 00 00 00 00 
   233)      1802.2  Rx         011C  8  84 03 84 03 00 00 00 00 
   234)      1802.7  Rx         012A  8  40 06 B2 07 00 00 08 00 
   235)      1803.2  Rx         0108  8  10 0E 41 00 2D 00 CD 00 
   236)      1803.7  Rx         012B  8  00 00 D9 20 D8 20 00 00 
   237)      1804.2  Rx         012E  8  00 00 00 00 00 00 00 00 
   238)      1804.7  Rx         0113  8  E8 80 E8 80 E8 80 E8 80 
   239)      1805.1  Rx         0114  8  E8 80 E8 80 E8 80 E8 80 
   240)      1805.6  Rx         0115  8  E8 80 E8 80 E8 80 E8 80 
   241)      1806.0  Rx         0116  8  E8 80 E8 80 E8 80 E8 80 
   242)      1806.5  Rx         0117  8  E8 80 E8 80 00 00 00 00 
   243)      1807.0  Rx         0112  8  19 19 19 19 19 19 54 24 
   244)      1807.4  Rx         014E  8  19 19 00 19 19 00 00 00 
   245)      1807.9  Rx         012D  8  19 19 19 19 19 19 00 00 
   246)      1808.4  Rx         0150  8  00 00 00 00 00 00 00 00 
   247)      1808.9  Rx         07A3  8  02 01 01 08 00 00 00 00 
   248)      1836.8  Tx         0602  8  00 00 00 00 00 00 01 00 
   249)      1936.5  Tx         0602  8  00 00 00 00 00 00 01 00 
   250)      2017.1  Rx         0300  8  E4 0C E4 0C E4 0C E4 0C 
   251)      2027.9  Rx         0301  8  E4 0C E4 0C E4 0C E4 0C 
   252)      2036.1  Tx         0602  8  00 00 00 00 00 00 01 00 
   253)      2038.3  Rx         0302  8  E4 0C E4 0C E4 0C E4 0C 
   254)      2048.9  Rx         0303  8  E4 0C E4 0C E4 0C E4 0C 
   255)      2059.3  Rx         0304  8  E4 0C E4 0C B2 0C B3 0C 
   256)      2070.0  Rx         0306  8  19 19 19 19 19 19 19 19 
   257)      2080.8  Rx         0307  8  19 19 19 19 19 19 19 19 
   258)      2086.6  Rx         0107  8  02 88 01 C2 00 00 00 00 
   259)      2087.1  Rx         0106  8  00 00 00 00 00 00 00 00 
   260)      2087.6  Rx         0258  8  00 00 00 00 00 00 00 00 
   261)      2088.1  Rx         0259  8  00 00 00 00 00 00 00 00 
   262)      2088.6  Rx         0260  8  00 0C 00 00 00 00 00 00 
   263)      2089.1  Rx         07A1  8  02 01 00 00 00 08 01 01 
   264)      2089.6  Rx         07A2  8  02 03 02 01 00 00 00 00 
   265)      2090.1  Rx         012F  8  02 02 01 00 00 00 00 00 
   266)      2090.5  Rx         0110  8  18 79 00 00 E4 F4 FF FF 
   267)      2091.2  Rx         0305  8  00 00 00 00 00 00 00 00 
   268)      2091.3  Rx         0109  8  B6 24 10 27 03 00 52 02 
   269)      2091.5  Rx         012C  8  E8 80 E8 80 00 00 01 00 
   270)      2092.0  Rx         0156  8  14 0A B8 0B 00 00 00 00 
   271)      2092.4  Rx         011C  8  84 03 84 03 00 00 00 00 
   272)      2092.9  Rx         012A  8  40 06 B2 07 00 00 08 00 
   273)      2093.4  Rx         0108  8  10 0E 41 00 2D 00 CD 00 
   274)      2093.9  Rx         012B  8  00 00 DB 20 DA 20 00 00 
   275)      2094.4  Rx         012E  8  00 00 00 00 00 00 00 00 
   276)      2094.9  Rx         0113  8  E8 80 E8 80 E8 80 E8 80 
   277)      2095.3  Rx         0114  8  E8 80 E8 80 E8 80 E8 80 
   278)      2095.8  Rx         0115  8  E8 80 E8 80 E8 80 E8 80 
   279)      2096.2  Rx         0116  8  E8 80 E8 80 E8 80 E8 80 
   280)      2096.7  Rx         0117  8  E8 80 E8 80 00 00 00 00 
   281)      2097.2  Rx         0112  8  19 19 19 19 19 19 54 24 
   282)      2097.7  Rx         014E  8  19 19 00 19 19 00 00 00 
   283)      2098.1  Rx         012D  8  19 19 19 19 19 19 00 00 
   284)      2098.6  Rx         0150  8  00 00 00 00 00 00 00 00 
   285)      2099.6  Rx         07A3  8  02 01 01 08 00 00 00 00 
   286)      2136.0  Tx         0602  8  00 00 00 00 00 00 01 00 
   287)      2236.9  Tx         0602  8  00 00 00 00 00 00 01 00 
   288)      2336.8  Tx         0602  8  00 00 00 00 00 00 01 00 
   289)      2392.2  Rx         0300  8  E4 0C E4 0C E4 0C E4 0C 
   290)      2395.2  Rx         0107  8  02 88 01 C2 00 00 00 00 
   291)      2395.7  Rx         0106  8  00 00 00 00 00 00 00 00 
   292)      2396.2  Rx         0258  8  00 00 00 00 00 00 00 00 
   293)      2396.7  Rx         0259  8  00 00 00 00 00 00 00 00 
   294)      2397.2  Rx         0260  8  00 0C 00 00 00 00 00 00 
   295)      2397.7  Rx         07A1  8  02 01 00 00 00 08 01 01 
   296)      2398.1  Rx         07A2  8  02 03 02 01 00 00 00 00 
   297)      2398.6  Rx         012F  8  02 02 01 00 00 00 00 00 
   298)      2399.1  Rx         0110  8  18 79 00 00 E4 F4 FF FF 
   299)      2399.6  Rx         0109  8  B6 24 10 27 03 00 52 02 
   300)      2400.1  Rx         012C  8  E8 80 E8 80 00 00 01 00 
   301)      2400.5  Rx         0156  8  14 0A B8 0B 00 00 00 00 
   302)      2401.0  Rx         011C  8  84 03 84 03 00 00 00 00 
   303)      2401.5  Rx         012A  8  40 06 B2 07 00 00 08 00 
   304)      2402.0  Rx         0108  8  10 0E 41 00 2D 00 CD 00 
   305)      2402.9  Rx         0301  8  E4 0C E4 0C E4 0C E4 0C 
   306)      2402.9  Rx         012B  8  00 00 DD 20 DD 20 00 00 
   307)      2403.0  Rx         012E  8  00 00 00 00 00 00 00 00 
   308)      2403.4  Rx         0113  8  E8 80 E8 80 E8 80 E8 80 
   309)      2403.9  Rx         0114  8  E8 80 E8 80 E8 80 E8 80 
   310)      2404.3  Rx         0115  8  E8 80 E8 80 E8 80 E8 80 
   311)      2404.8  Rx         0116  8  E8 80 E8 80 E8 80 E8 80 
   312)      2405.3  Rx         0117  8  E8 80 E8 80 00 00 00 00 
   313)      2405.7  Rx         0112  8  19 19 19 19 19 19 54 24 
   314)      2406.2  Rx         014E  8  19 19 00 19 19 00 00 00 
   315)      2406.7  Rx         012D  8  19 19 19 19 19 19 00 00 
   316)      2407.2  Rx         0150  8  00 00 00 00 00 00 00 00 
   317)      2408.1  Rx         07A3  8  02 01 01 08 00 00 00 00 
   318)      2413.7  Rx         0302  8  E4 0C E4 0C E4 0C E4 0C 
   319)      2424.3  Rx         0303  8  E4 0C E4 0C E4 0C E4 0C 
   320)      2435.0  Rx         0304  8  E4 0C E4 0C B2 0C B3 0C 
   321)      2436.1  Tx         0602  8  00 00 00 00 00 00 01 00 
   322)      2445.7  Rx         0306  8  19 19 19 19 19 19 19 19 
   323)      2456.3  Rx         0307  8  19 19 19 19 19 19 19 19 
   324)      2466.8  Rx         0305  8  00 00 00 00 00 00 00 00 
   325)      2536.6  Tx         0602  8  00 00 00 00 00 00 01 00 
   326)      2636.1  Tx         0602  8  00 00 00 00 00 00 01 00 
   327)      2684.8  Rx         0107  8  02 88 01 C2 00 00 00 00 
   328)      2685.3  Rx         0106  8  00 00 00 00 00 00 00 00 
   329)      2685.8  Rx         0258  8  00 00 00 00 00 00 00 00 
   330)      2686.3  Rx         0259  8  00 00 00 00 00 00 00 00 
   331)      2686.8  Rx         0260  8  00 0C 00 00 00 00 00 00 
   332)      2687.2  Rx         07A1  8  02 01 00 00 00 08 01 01 
   333)      2687.8  Rx         07A2  8  02 03 02 01 00 00 00 00 
   334)      2688.2  Rx         012F  8  02 02 01 00 00 00 00 00 
   335)      2688.7  Rx         0110  8  18 79 00 00 1D F7 FF FF 
   336)      2689.2  Rx         0109  8  B6 24 10 27 03 00 52 02 
   337)      2689.6  Rx         012C  8  E8 80 E8 80 00 00 01 00 
   338)      2690.1  Rx         0156  8  14 0A B8 0B 00 00 00 00 
   339)      2690.6  Rx         011C  8  84 03 84 03 00 00 00 00 
   340)      2691.1  Rx         012A  8  40 06 B2 07 00 00 08 00 
   341)      2691.6  Rx         0108  8  10 0E 41 00 2D 00 CD 00 
   342)      2692.1  Rx         012B  8  00 00 E0 20 DF 20 00 00 
   343)      2692.6  Rx         012E  8  00 00 00 00 00 00 00 00 
   344)      2693.0  Rx         0113  8  E8 80 E8 80 E8 80 E8 80 
   345)      2693.5  Rx         0114  8  E8 80 E8 80 E8 80 E8 80 
   346)      2693.9  Rx         0115  8  E8 80 E8 80 E8 80 E8 80 
   347)      2694.4  Rx         0116  8  E8 80 E8 80 E8 80 E8 80 
   348)      2694.9  Rx         0117  8  E8 80 E8 80 00 00 00 00 
   349)      2695.4  Rx         0112  8  19 19 19 19 19 19 54 24 
   350)      2695.8  Rx         014E  8  19 19 00 19 19 00 00 00 
   351)      2696.3  Rx         012D  8  19 19 19 19 19 19 00 00 
   352)      2696.8  Rx         0150  8  00 00 00 00 00 00 00 00 
   353)      2697.3  Rx         07A3  8  02 01 01 08 00 00 00 00 
   354)      2736.3  Tx         0602  8  00 00 00 00 00 00 01 00 
   355)      2767.7  Rx         0300  8  E4 0C E4 0C E4 0C E4 0C 
   356)      2778.4  Rx         0301  8  E4 0C E4 0C E4 0C E4 0C 
   357)      2788.9  Rx         0302  8  E4 0C E4 0C E4 0C E4 0C 
   358)      2799.3  Rx         0303  8  E4 0C E4 0C E4 0C E4 0C 
   359)      2809.8  Rx         0304  8  E4 0C E4 0C B3 0C B3 0C 
   360)      2820.2  Rx         0306  8  19 19 19 19 19 19 19 19 
   361)      2830.7  Rx         0307  8  19 19 19 19 19 19 19 19 
   362)      2836.0  Tx         0602  8  00 00 00 00 00 00 01 00 
   363)      2841.2  Rx         0305  8  00 00 00 00 00 00 00 00 
   364)      2936.5  Tx         0602  8  00 00 00 00 00 00 01 00 
   365)      2993.4  Rx         0107  8  02 88 01 C2 00 00 00 00 
   366)      2993.9  Rx         0106  8  00 00 00 00 00 00 00 00 
   367)      2994.4  Rx         0258  8  00 00 00 00 00 00 00 00 
   368)      2994.9  Rx         0259  8  00 00 00 00 00 00 00 00 
   369)      2995.4  Rx         0260  8  00 0C 00 00 00 00 00 00 
   370)      2995.9  Rx         07A1  8  02 01 00 00 00 08 01 01 
   371)      2996.4  Rx         07A2  8  02 03 02 01 00 00 00 00 
   372)      2996.9  Rx         012F  8  02 02 01 00 00 00 00 00 
   373)      2997.4  Rx         0110  8  18 79 00 00 E4 F4 FF FF 
   374)      2997.8  Rx         0109  8  B6 24 10 27 03 00 52 02 
   375)      2998.3  Rx         012C  8  E8 80 E8 80 00 00 01 00 
   376)      2998.8  Rx         0156  8  14 0A B8 0B 00 00 00 00 
   377)      2999.3  Rx         011C  8  84 03 84 03 00 00 00 00 
   378)      2999.8  Rx         012A  8  40 06 B2 07 00 00 08 00 
   379)      3000.2  Rx         0108  8  10 0E 41 00 2D 00 CD 00 
   380)      3000.7  Rx         012B  8  00 00 E2 20 E1 20 00 00 
   381)      3001.2  Rx         012E  8  00 00 00 00 00 00 00 00 
   382)      3001.7  Rx         0113  8  E8 80 E8 80 E8 80 E8 80 
   383)      3002.2  Rx         0114  8  E8 80 E8 80 E8 80 E8 80 
   384)      3002.6  Rx         0115  8  E8 80 E8 80 E8 80 E8 80 
   385)      3003.1  Rx         0116  8  E8 80 E8 80 E8 80 E8 80 
   386)      3003.5  Rx         0117  8  E8 80 E8 80 00 00 00 00 
   387)      3004.0  Rx         0112  8  19 19 19 19 19 19 54 24 
   388)      3004.5  Rx         014E  8  19 19 00 19 19 00 00 00 
   389)      3004.9  Rx         012D  8  19 19 19 19 19 19 00 00 
   390)      3005.4  Rx         0150  8  00 00 00 00 00 00 00 00 
   391)      3005.9  Rx         07A3  8  02 01 01 08 00 00 00 00 
   392)      3036.0  Tx         0602  8  00 00 00 00 00 00 01 00 
   393)      3136.8  Tx         0602  8  00 00 00 00 00 00 01 00 
   394)      3141.7  Rx         0300  8  EF 0C E4 0C E4 0C E4 0C 
   395)      3152.4  Rx         0301  8  E4 0C E4 0C E4 0C E4 0C 
   396)      3162.7  Rx         0302  8  E4 0C E4 0C E4 0C E4 0C 
   397)      3173.3  Rx         0303  8  E4 0C E4 0C E4 0C E4 0C 
   398)      3183.6  Rx         0304  8  E4 0C E4 0C B3 0C B3 0C 
   399)      3194.5  Rx         0306  8  19 19 19 19 19 19 19 19 
   400)      3204.9  Rx         0307  8  19 19 19 19 19 19 19 19 
   401)      3215.5  Rx         0305  8  00 00 00 00 00 00 00 00 
   402)      3236.1  Tx         0602  8  00 00 00 00 00 00 01 00 
   403)      3284.6  Rx         0107  8  02 88 01 C2 00 00 00 00 
   404)      3285.2  Rx         0106  8  00 00 00 00 00 00 00 00 
   405)      3285.7  Rx         0258  8  00 00 00 00 00 00 00 00 
   406)      3286.1  Rx         0259  8  00 00 00 00 00 00 00 00 
   407)      3286.6  Rx         0260  8  00 0C 00 00 00 00 00 00 
   408)      3287.1  Rx         07A1  8  02 01 00 00 00 08 01 01 
   409)      3287.6  Rx         07A2  8  02 03 02 01 00 00 00 00 
   410)      3288.3  Rx         07A3  8  02 01 01 08 00 00 00 00 
   411)      3288.8  Rx         012F  8  02 02 01 00 00 00 00 00 
   412)      3289.4  Rx         0110  8  18 79 00 01 00 00 00 00 
   413)      3289.8  Rx         0109  8  B6 24 10 27 03 00 52 02 
   414)      3290.4  Rx         012C  8  56 81 E8 80 6E 00 01 00 
   415)      3290.8  Rx         011C  8  84 03 84 03 00 00 00 00 
   416)      3291.3  Rx         012A  8  40 06 B2 07 00 00 08 00 
   417)      3291.8  Rx         0108  8  10 0E 41 00 2D 00 CD 00 
   418)      3292.2  Rx         012B  8  00 00 E4 20 E4 20 00 00 
   419)      3292.7  Rx         012E  8  00 00 00 00 00 00 00 00 
   420)      3293.2  Rx         0113  8  56 81 E8 80 E8 80 E8 80 
   421)      3293.7  Rx         0114  8  E8 80 E8 80 E8 80 E8 80 
   422)      3294.2  Rx         0115  8  E8 80 E8 80 E8 80 E8 80 
   423)      3294.6  Rx         0116  8  E8 80 E8 80 E8 80 E8 80 
   424)      3295.1  Rx         0117  8  E8 80 E8 80 00 00 00 00 
   425)      3295.5  Rx         0112  8  19 19 19 19 19 19 54 24 
   426)      3296.0  Rx         014E  8  19 19 00 19 19 00 00 00 
   427)      3296.5  Rx         012D  8  19 19 19 19 19 19 00 00 
   428)      3297.0  Rx         0150  8  00 00 00 00 00 00 00 00 
   429)      3297.4  Rx         0156  8  14 0A B8 0B 00 00 00 00 
   430)      3336.2  Tx         0602  8  00 00 00 00 00 00 01 00 
   431)      3436.4  Tx         0602  8  00 00 00 00 00 00 01 00 
   432)      3516.4  Rx         0300  8  EF 0C E4 0C E4 0C E4 0C 
   433)      3527.1  Rx         0301  8  E4 0C E4 0C E4 0C E4 0C 
   434)      3536.4  Tx         0602  8  00 00 00 00 00 00 01 00 
   435)      3537.6  Rx         0302  8  E4 0C E4 0C E4 0C E4 0C 
   436)      3547.8  Rx         0303  8  E4 0C E4 0C E4 0C E4 0C 
   437)      3558.2  Rx         0304  8  E4 0C E4 0C B3 0C B3 0C 
   438)      3568.6  Rx         0306  8  19 19 19 19 19 19 19 19 
   439)      3579.2  Rx         0307  8  19 19 19 19 19 19 19 19 
   440)      3589.6  Rx         0305  8  00 00 00 00 00 00 00 00 
   441)      3592.0  Rx         0107  8  02 88 01 C2 00 00 00 00 
   442)      3592.5  Rx         0106  8  00 00 00 00 00 00 00 00 
   443)      3593.0  Rx         0258  8  00 00 00 00 00 00 00 00 
   444)      3593.5  Rx         0259  8  00 00 00 00 00 00 00 00 
   445)      3594.0  Rx         0260  8  00 0C 00 00 00 00 00 00 
   446)      3594.5  Rx         07A1  8  02 01 00 00 00 08 01 01 
   447)      3595.0  Rx         07A2  8  02 03 02 01 00 00 00 00 
   448)      3595.5  Rx         012F  8  02 02 01 00 00 00 00 00 
   449)      3596.0  Rx         0110  8  18 79 00 01 1D F7 FF FF 
   450)      3596.4  Rx         0109  8  B6 24 10 27 03 00 52 02 
   451)      3596.9  Rx         012C  8  56 81 E8 80 6E 00 01 00 
   452)      3597.4  Rx         0156  8  14 0A B8 0B 00 00 00 00 
   453)      3597.9  Rx         011C  8  84 03 84 03 00 00 00 00 
   454)      3598.3  Rx         012A  8  40 06 B2 07 00 00 08 00 
   455)      3598.8  Rx         0108  8  10 0E 41 00 2D 00 CD 00 
   456)      3599.3  Rx         012B  8  00 00 E7 20 E6 20 00 00 
   457)      3599.8  Rx         012E  8  00 00 00 00 00 00 00 00 
   458)      3600.2  Rx         0113  8  56 81 E8 80 E8 80 E8 80 
   459)      3600.7  Rx         0114  8  E8 80 E8 80 E8 80 E8 80 
   460)      3601.2  Rx         0115  8  E8 80 E8 80 E8 80 E8 80 
   461)      3601.6  Rx         0116  8  E8 80 E8 80 E8 80 E8 80 
   462)      3602.1  Rx         0117  8  E8 80 E8 80 00 00 00 00 
   463)      3602.6  Rx         0112  8  19 19 19 19 19 19 54 24 
   464)      3603.1  Rx         014E  8  19 19 00 19 19 00 00 00 
   465)      3603.5  Rx         012D  8  19 19 19 19 19 19 00 00 
   466)      3604.0  Rx         0150  8  00 00 00 00 00 00 00 00 
   467)      3604.5  Rx         07A3  8  02 01 01 08 00 00 00 00 
   468)      3636.0  Tx         0602  8  00 00 00 00 00 00 01 00 
   469)      3735.9  Tx         0602  8  00 00 00 00 00 00 01 00 
   470)      3836.8  Tx         0602  8  00 00 00 00 00 00 01 00 
   471)      3882.0  Rx         0107  8  02 88 01 C2 00 00 00 00 
   472)      3882.5  Rx         0106  8  00 00 00 00 00 00 00 00 
   473)      3882.9  Rx         0258  8  00 00 00 00 00 00 00 00 
   474)      3883.5  Rx         0259  8  00 00 00 00 00 00 00 00 
   475)      3884.0  Rx         0260  8  00 0C 00 00 00 00 00 00 
   476)      3884.4  Rx         07A1  8  02 01 00 00 00 08 01 01 
   477)      3885.0  Rx         07A2  8  02 03 02 01 00 00 00 00 
   478)      3885.4  Rx         012F  8  02 02 01 00 00 00 00 00 
   479)      3885.9  Rx         0110  8  18 79 00 01 E4 F4 FF FF 
   480)      3886.4  Rx         0109  8  B6 24 10 27 03 00 52 02 
   481)      3886.8  Rx         012C  8  56 81 E8 80 6E 00 01 00 
   482)      3887.3  Rx         0156  8  14 0A B8 0B 00 00 00 00 
   483)      3887.8  Rx         011C  8  84 03 84 03 00 00 00 00 
   484)      3888.3  Rx         012A  8  40 06 B2 07 00 00 08 00 
   485)      3888.7  Rx         0108  8  10 0E 41 00 2D 00 CD 00 
   486)      3890.2  Rx         0300  8  EF 0C E4 0C E4 0C E4 0C 
   487)      3890.2  Rx         012B  8  00 00 E9 20 E8 20 00 00 
   488)      3890.3  Rx         012E  8  00 00 00 00 00 00 00 00 
   489)      3890.3  Rx         0113  8  56 81 E8 80 E8 80 E8 80 
   490)      3890.7  Rx         0114  8  E8 80 E8 80 E8 80 E8 80 
   491)      3891.1  Rx         0115  8  E8 80 E8 80 E8 80 E8 80 
   492)      3891.6  Rx         0116  8  E8 80 E8 80 E8 80 E8 80 
   493)      3892.1  Rx         0117  8  E8 80 E8 80 00 00 00 00 
   494)      3892.5  Rx         0112  8  19 19 19 19 19 19 54 24 
   495)      3893.0  Rx         014E  8  19 19 00 19 19 00 00 00 
   496)      3893.5  Rx         012D  8  19 19 19 19 19 19 00 00 
   497)      3894.0  Rx         0150  8  00 00 00 00 00 00 00 00 
   498)      3894.9  Rx         07A3  8  02 01 01 08 00 00 00 00 
   499)      3900.9  Rx         0301  8  E4 0C E4 0C E4 0C E4 0C 
   500)      3911.3  Rx         0302  8  E4 0C E4 0C E4 0C E4 0C 
   501)      3921.8  Rx         0303  8  E4 0C E4 0C E4 0C E4 0C 
   502)      3932.4  Rx         0304  8  E4 0C E4 0C B3 0C B4 0C 
   503)      3936.8  Tx         0602  8  00 00 00 00 00 00 01 00 
   504)      3943.2  Rx         0306  8  19 19 19 19 19 19 19 19 
   505)      3953.8  Rx         0307  8  19 19 19 19 19 19 19 19 
   506)      3964.3  Rx         0305  8  00 00 00 00 00 00 00 00 
   507)      4036.6  Tx         0602  8  00 00 00 00 00 00 01 00 
   508)      4136.9  Tx         0602  8  00 00 00 00 00 00 01 00 
   509)      4191.8  Rx         0107  8  02 88 01 C2 00 00 00 00 
   510)      4192.4  Rx         0106  8  00 00 00 00 00 00 00 00 
   511)      4192.9  Rx         0258  8  00 00 00 00 00 00 00 00 
   512)      4193.4  Rx         0259  8  00 00 00 00 00 00 00 00 
   513)      4193.9  Rx         0260  8  00 0C 00 00 00 00 00 00 
   514)      4194.7  Rx         07A1  8  02 01 00 00 00 08 01 01 
   515)      4195.2  Rx         07A2  8  02 03 02 01 00 00 00 00 
   516)      4195.7  Rx         07A3  8  02 01 01 08 00 00 00 00 
   517)      4196.2  Rx         012F  8  02 02 01 00 00 00 00 00 
   518)      4196.7  Rx         0109  8  B6 24 10 27 03 00 52 02 
   519)      4197.1  Rx         0110  8  18 79 00 01 E4 F4 FF FF 
   520)      4197.6  Rx         012C  8  56 81 E8 80 6E 00 01 00 
   521)      4198.1  Rx         011C  8  84 03 84 03 00 00 00 00 
   522)      4198.6  Rx         012A  8  40 06 B2 07 00 00 08 00 
   523)      4199.1  Rx         0108  8  10 0E 41 00 2D 00 CD 00 
   524)      4199.5  Rx         012B  8  00 00 EB 20 EA 20 00 00 
   525)      4200.0  Rx         012E  8  00 00 00 00 00 00 00 00 
   526)      4200.5  Rx         0113  8  56 81 E8 80 E8 80 E8 80 
   527)      4201.0  Rx         0114  8  E8 80 E8 80 E8 80 E8 80 
   528)      4201.4  Rx         0115  8  E8 80 E8 80 E8 80 E8 80 
   529)      4201.9  Rx         0116  8  E8 80 E8 80 E8 80 E8 80 
   530)      4202.4  Rx         0117  8  E8 80 E8 80 00 00 00 00 
   531)      4202.8  Rx         0112  8  19 19 19 19 19 19 54 24 
   532)      4203.3  Rx         014E  8  19 19 00 19 19 00 00 00 
   533)      4203.8  Rx         012D  8  19 19 19 19 19 19 00 00 
   534)      4204.3  Rx         0150  8  00 00 00 00 00 00 00 00 
   535)      4204.7  Rx         0156  8  14 0A B8 0B 00 00 00 00 
   536)      4235.9  Tx         0602  8  00 00 00 00 00 00 01 00 
   537)      4265.0  Rx         0300  8  EF 0C E4 0C E4 0C E4 0C 
   538)      4275.7  Rx         0301  8  E4 0C E4 0C E4 0C E4 0C 
   539)      4286.4  Rx         0302  8  E4 0C E4 0C E4 0C E4 0C 
   540)      4296.9  Rx         0303  8  E4 0C E4 0C E4 0C E4 0C 
   541)      4307.7  Rx         0304  8  E4 0C E4 0C B3 0C B4 0C 
   542)      4318.4  Rx         0306  8  19 19 19 19 19 19 19 19 
   543)      4329.0  Rx         0307  8  19 19 19 19 19 19 19 19 
   544)      4336.1  Tx         0602  8  00 00 00 00 00 00 01 00 
   545)      4339.8  Rx         0305  8  00 00 00 00 00 00 00 00 
   546)      4437.4  Tx         0602  8  00 00 00 00 00 00 01 00 
   547)      4480.5  Rx         0107  8  02 88 01 C2 00 00 00 00 
   548)      4481.0  Rx         0106  8  00 00 00 00 00 00 00 00 
   549)      4481.5  Rx         0258  8  00 00 00 00 00 00 00 00 
   550)      4482.0  Rx         0259  8  00 00 00 00 00 00 00 00 
   551)      4482.5  Rx         0260  8  00 0C 00 00 00 00 00 00 
   552)      4483.0  Rx         07A1  8  02 01 00 00 00 08 01 01 
   553)      4483.5  Rx         07A2  8  02 03 02 01 00 00 00 00 
   554)      4484.0  Rx         012F  8  02 02 01 00 00 00 00 00 
   555)      4484.5  Rx         0110  8  18 79 00 01 1D F7 FF FF 
   556)      4484.9  Rx         0109  8  B6 24 10 27 03 00 52 02 
   557)      4485.4  Rx         012C  8  56 81 E8 80 6E 00 01 00 
   558)      4485.9  Rx         0156  8  14 0A B8 0B 00 00 00 00 
   559)      4486.4  Rx         011C  8  84 03 84 03 00 00 00 00 
   560)      4486.9  Rx         012A  8  40 06 B2 07 00 00 08 00 
   561)      4487.3  Rx         0108  8  10 0E 41 00 2D 00 CD 00 
   562)      4487.8  Rx         012B  8  00 00 EE 20 ED 20 00 00 
   563)      4488.3  Rx         012E  8  00 00 00 00 00 00 00 00 
   564)      4488.8  Rx         0113  8  56 81 E8 80 E8 80 E8 80 
   565)      4489.3  Rx         0114  8  E8 80 E8 80 E8 80 E8 80 
   566)      4489.7  Rx         0115  8  E8 80 E8 80 E8 80 E8 80 
   567)      4490.2  Rx         0116  8  E8 80 E8 80 E8 80 E8 80 
   568)      4490.6  Rx         0117  8  E8 80 E8 80 00 00 00 00 
   569)      4491.1  Rx         0112  8  19 19 19 19 19 19 54 24 
   570)      4491.6  Rx         014E  8  19 19 00 19 19 00 00 00 
   571)      4492.0  Rx         012D  8  19 19 19 19 19 19 00 00 
   572)      4492.5  Rx         0150  8  01 00 00 00 00 00 00 00 
   573)      4493.0  Rx         07A3  8  02 01 01 08 00 00 00 00 
   574)      4536.4  Tx         0602  8  00 00 00 00 00 00 01 00 
   575)      4636.7  Tx         0602  8  00 00 00 00 00 00 01 00 
   576)      4640.6  Rx         0300  8  EF 0C E4 0C E4 0C E4 0C 
   577)      4651.2  Rx         0301  8  E4 0C E4 0C E4 0C E4 0C 
   578)      4661.8  Rx         0302  8  E4 0C E4 0C E4 0C E4 0C 
   579)      4672.2  Rx         0303  8  E4 0C E4 0C E4 0C E4 0C 
   580)      4682.7  Rx         0304  8  E4 0C E4 0C B4 0C B4 0C 
   581)      4693.3  Rx         0306  8  19 19 19 19 19 19 19 19 
   582)      4703.8  Rx         0307  8  19 19 19 19 19 19 19 19 
   583)      4714.2  Rx         0305  8  00 00 00 00 00 00 00 00 
   584)      4736.9  Tx         0602  8  00 00 00 00 00 00 01 00 
   585)      4789.2  Rx         0107  8  02 88 01 C2 00 00 00 00 
   586)      4789.7  Rx         0106  8  00 00 00 00 00 00 00 00 
   587)      4790.2  Rx         0258  8  00 00 00 00 00 00 00 00 
   588)      4790.6  Rx         0259  8  00 00 00 00 00 00 00 00 
   589)      4791.2  Rx         0260  8  00 0C 00 00 00 00 00 00 
   590)      4791.6  Rx         07A1  8  02 01 00 00 00 08 01 01 
   591)      4792.1  Rx         07A2  8  02 03 02 01 00 00 00 00 
   592)      4792.6  Rx         012F  8  02 02 01 00 00 00 00 00 
   593)      4793.1  Rx         0110  8  18 79 00 01 E4 F4 FF FF 
   594)      4793.6  Rx         0109  8  B6 24 10 27 03 00 52 02 
   595)      4794.1  Rx         012C  8  56 81 E8 80 6E 00 01 00 
   596)      4794.5  Rx         0156  8  14 0A B8 0B 00 00 00 00 
   597)      4795.0  Rx         011C  8  84 03 84 03 00 00 00 00 
   598)      4795.5  Rx         012A  8  40 06 B2 07 00 00 08 00 
   599)      4796.0  Rx         0108  8  10 0E 41 00 2D 00 CD 00 
   600)      4796.5  Rx         012B  8  00 00 F0 20 EF 20 00 00 
   601)      4797.0  Rx         012E  8  00 00 00 00 00 00 00 00 
   602)      4797.4  Rx         0113  8  56 81 E8 80 E8 80 E8 80 
   603)      4797.9  Rx         0114  8  E8 80 E8 80 E8 80 E8 80 
   604)      4798.3  Rx         0115  8  E8 80 E8 80 E8 80 E8 80 
   605)      4798.8  Rx         0116  8  E8 80 E8 80 E8 80 E8 80 
   606)      4799.3  Rx         0117  8  E8 80 E8 80 00 00 00 00 
   607)      4799.7  Rx         0112  8  19 19 19 19 19 19 54 24 
   608)      4800.2  Rx         014E  8  19 19 00 19 19 00 00 00 
   609)      4800.7  Rx         012D  8  19 19 19 19 19 19 00 00 
   610)      4801.2  Rx         0150  8  00 00 00 00 00 00 00 00 
   611)      4801.7  Rx         07A3  8  02 01 01 08 00 00 00 00 
   612)      4836.5  Tx         0602  8  00 00 00 00 00 00 01 00 
   613)      4935.9  Tx         0602  8  00 00 00 00 00 00 01 00 
   614)      5014.7  Rx         0300  8  EF 0C E4 0C E4 0C E4 0C 
   615)      5025.4  Rx         0301  8  E4 0C E4 0C E4 0C E4 0C 
   616)      5035.7  Rx         0302  8  E4 0C E4 0C E4 0C E4 0C 
   617)      5036.8  Tx         0602  8  00 00 00 00 00 00 01 00 
   618)      5046.1  Rx         0303  8  E4 0C E4 0C E4 0C E4 0C 
   619)      5056.5  Rx         0304  8  E4 0C E4 0C B4 0C B4 0C 
   620)      5067.0  Rx         0306  8  19 19 19 19 19 19 19 19 
   621)      5078.2  Rx         0307  8  19 19 19 19 19 19 19 19 
   622)      5079.4  Rx         0106  8  00 00 00 00 00 00 00 00 
   623)      5079.9  Rx         0107  8  02 88 01 C2 00 00 00 00 
   624)      5080.4  Rx         0258  8  00 00 00 00 00 00 00 00 
   625)      5080.9  Rx         0259  8  00 00 00 00 00 00 00 00 
   626)      5081.4  Rx         0260  8  00 0C 00 00 00 00 00 00 
   627)      5081.8  Rx         07A1  8  02 01 00 00 00 08 01 01 
   628)      5082.4  Rx         07A2  8  02 03 02 01 00 00 00 00 
   629)      5082.8  Rx         012F  8  02 02 01 00 00 00 00 00 
   630)      5083.3  Rx         0110  8  18 79 00 01 E4 F4 FF FF 
   631)      5083.8  Rx         0109  8  B6 24 10 27 03 00 52 02 
   632)      5084.3  Rx         012C  8  56 81 E8 80 6E 00 01 00 
   633)      5084.7  Rx         0156  8  14 0A B8 0B 00 00 00 00 
   634)      5085.2  Rx         011C  8  84 03 84 03 00 00 00 00 
   635)      5085.7  Rx         012A  8  40 06 B2 07 00 00 08 00 
   636)      5086.2  Rx         0108  8  10 0E 41 00 2D 00 CD 00 
   637)      5086.7  Rx         012B  8  00 00 F2 20 F1 20 00 00 
   638)      5087.2  Rx         012E  8  00 00 00 00 00 00 00 00 
   639)      5087.6  Rx         0113  8  56 81 E8 80 E8 80 E8 80 
   640)      5088.6  Rx         0305  8  00 00 00 00 00 00 00 00 
   641)      5088.6  Rx         0114  8  E8 80 E8 80 E8 80 E8 80 
   642)      5088.7  Rx         0115  8  E8 80 E8 80 E8 80 E8 80 
   643)      5089.0  Rx         0116  8  E8 80 E8 80 E8 80 E8 80 
   644)      5089.5  Rx         0117  8  E8 80 E8 80 00 00 00 00 
   645)      5090.0  Rx         0112  8  19 19 19 19 19 19 54 24 
   646)      5090.4  Rx         014E  8  19 19 00 19 19 00 00 00 
   647)      5090.9  Rx         012D  8  19 19 19 19 19 19 00 00 
   648)      5091.4  Rx         0150  8  00 00 00 00 00 00 00 00 
   649)      5092.4  Rx         07A3  8  02 01 01 08 00 00 00 00 
   650)      5136.7  Tx         0602  8  00 00 00 00 00 00 01 00 
   651)      5236.7  Tx         0602  8  00 00 00 00 00 00 01 00 
   652)      5336.6  Tx         0602  8  00 00 00 00 00 00 01 00 
   653)      5387.8  Rx         0107  8  02 88 01 C2 00 00 00 00 
   654)      5388.3  Rx         0106  8  00 00 00 00 00 00 00 00 
   655)      5389.0  Rx         0300  8  EF 0C E4 0C E4 0C E4 0C 
   656)      5389.0  Rx         0258  8  00 00 00 00 00 00 00 00 
   657)      5389.3  Rx         0259  8  00 00 00 00 00 00 00 00 
   658)      5389.8  Rx         0260  8  00 0C 00 00 00 00 00 00 
   659)      5390.8  Rx         07A1  8  02 01 00 00 00 08 01 01 
   660)      5391.2  Rx         07A2  8  02 03 02 01 00 00 00 00 
   661)      5391.8  Rx         012F  8  02 02 01 00 00 00 00 00 
   662)      5392.2  Rx         0110  8  18 79 00 01 E4 F4 FF FF 
   663)      5392.7  Rx         0109  8  B6 24 10 27 03 00 52 02 
   664)      5393.2  Rx         012C  8  56 81 E8 80 6E 00 01 00 
   665)      5393.6  Rx         0156  8  14 0A B8 0B 00 00 00 00 
   666)      5394.1  Rx         011C  8  84 03 84 03 00 00 00 00 
   667)      5394.6  Rx         012A  8  40 06 B2 07 00 00 08 00 
   668)      5395.1  Rx         0108  8  10 0E 41 00 2D 00 CD 00 
   669)      5395.6  Rx         012B  8  00 00 F4 20 F4 20 00 00 
   670)      5396.1  Rx         012E  8  00 00 00 00 00 00 00 00 
   671)      5396.5  Rx         0113  8  56 81 E8 80 E8 80 E8 80 
   672)      5397.0  Rx         0114  8  E8 80 E8 80 E8 80 E8 80 
   673)      5397.5  Rx         0115  8  E8 80 E8 80 E8 80 E8 80 
   674)      5397.9  Rx         0116  8  E8 80 E8 80 E8 80 E8 80 
   675)      5398.4  Rx         0117  8  E8 80 E8 80 00 00 00 00 
   676)      5398.8  Rx         0112  8  19 19 19 19 19 19 54 24 
   677)      5399.5  Rx         0301  8  E4 0C E4 0C E4 0C E4 0C 
   678)      5399.6  Rx         014E  8  19 19 00 19 19 00 00 00 
   679)      5399.8  Rx         012D  8  19 19 19 19 19 19 00 00 
   680)      5400.3  Rx         0150  8  00 00 00 00 00 00 00 00 
   681)      5401.2  Rx         07A3  8  02 01 01 08 00 00 00 00 
   682)      5410.1  Rx         0302  8  E4 0C E4 0C E4 0C E4 0C 
   683)      5420.5  Rx         0303  8  E4 0C E4 0C E4 0C E4 0C 
   684)      5431.1  Rx         0304  8  E4 0C E4 0C B4 0C B5 0C 
   685)      5436.4  Tx         0602  8  00 00 00 00 00 00 01 00 
   686)      5441.9  Rx         0306  8  19 19 19 19 19 19 19 19 
   687)      5452.3  Rx         0307  8  19 19 19 19 19 19 19 19 
   688)      5463.1  Rx         0305  8  00 00 00 00 00 00 00 00 
   689)      5536.4  Tx         0602  8  00 00 00 00 00 00 01 00 
   690)      5636.1  Tx         0602  8  00 00 00 00 00 00 01 00 
   691)      5677.7  Rx         0107  8  02 88 01 C2 00 00 00 00 
   692)      5678.2  Rx         0106  8  00 00 00 00 00 00 00 00 
   693)      5678.6  Rx         0258  8  00 00 00 00 00 00 00 00 
   694)      5679.2  Rx         0259  8  00 00 00 00 00 00 00 00 
   695)      5679.7  Rx         0260  8  00 0C 00 00 00 00 00 00 
   696)      5680.1  Rx         07A1  8  02 01 00 00 00 08 01 01 
   697)      5680.7  Rx         07A2  8  02 03 02 01 00 00 00 00 
   698)      5681.1  Rx         012F  8  02 02 01 00 00 00 00 00 
   699)      5681.6  Rx         0110  8  18 79 00 01 1D F7 FF FF 
   700)      5682.1  Rx         0109  8  B6 24 10 27 03 00 52 02 
   701)      5682.5  Rx         012C  8  56 81 E8 80 6E 00 01 00 
   702)      5683.0  Rx         0156  8  14 0A B8 0B 00 00 00 00 
   703)      5683.5  Rx         011C  8  84 03 84 03 00 00 00 00 
   704)      5684.0  Rx         012A  8  40 06 B2 07 00 00 08 00 
   705)      5684.4  Rx         0108  8  10 0E 41 00 2D 00 CD 00 
   706)      5685.0  Rx         012B  8  00 00 F7 20 F6 20 00 00 
   707)      5685.4  Rx         012E  8  00 00 00 00 00 00 00 00 
   708)      5685.9  Rx         0113  8  56 81 E8 80 E8 80 E8 80 
   709)      5686.4  Rx         0114  8  E8 80 E8 80 E8 80 E8 80 
   710)      5686.8  Rx         0115  8  E8 80 E8 80 E8 80 E8 80 
   711)      5687.3  Rx         0116  8  E8 80 E8 80 E8 80 E8 80 
   712)      5687.8  Rx         0117  8  E8 80 E8 80 00 00 00 00 
   713)      5688.2  Rx         0112  8  19 19 19 19 19 19 54 24 
   714)      5688.7  Rx         014E  8  19 19 00 19 19 00 00 00 
   715)      5689.2  Rx         012D  8  19 19 19 19 19 19 00 00 
   716)      5689.7  Rx         0150  8  01 00 00 00 00 00 00 00 
   717)      5690.2  Rx         07A3  8  02 01 01 08 00 00 00 00 
   718)      5736.4  Tx         0602  8  00 00 00 00 00 00 01 00 
   719)      5764.2  Rx         0300  8  EF 0C E4 0C E4 0C E4 0C 
   720)      5774.7  Rx         0301  8  E4 0C E4 0C E4 0C E4 0C 
   721)      5785.5  Rx         0302  8  E4 0C E4 0C E4 0C E4 0C 
   722)      5796.2  Rx         0303  8  E4 0C E4 0C E4 0C E4 0C 
   723)      5807.0  Rx         0304  8  E4 0C E4 0C B4 0C B5 0C 
   724)      5817.4  Rx         0306  8  19 19 19 19 19 19 19 19 
   725)      5827.9  Rx         0307  8  19 19 19 19 19 19 19 19 
   726)      5836.4  Tx         0602  8  00 00 00 00 00 00 01 00 
   727)      5838.6  Rx         0305  8  00 00 00 00 00 00 00 00 
   728)      5936.5  Tx         0602  8  00 00 00 00 00 00 01 00 
   729)      5986.3  Rx         0107  8  02 88 01 C2 00 00 00 00 
   730)      5986.8  Rx         0106  8  00 00 00 00 00 00 00 00 
   731)      5987.3  Rx         0258  8  00 00 00 00 00 00 00 00 
   732)      5987.8  Rx         0259  8  00 00 00 00 00 00 00 00 
   733)      5988.3  Rx         0260  8  00 0C 00 00 00 00 00 00 
   734)      5988.7  Rx         07A1  8  02 01 00 00 00 08 01 01 
   735)      5989.3  Rx         07A2  8  02 03 02 01 00 00 00 00 
   736)      5989.7  Rx         012F  8  02 02 01 00 00 00 00 00 
   737)      5990.2  Rx         0110  8  18 79 00 01 1D F7 FF FF 
   738)      5990.7  Rx         0109  8  B6 24 10 27 03 00 52 02 
   739)      5991.1  Rx         012C  8  56 81 E8 80 6E 00 01 00 
   740)      5991.6  Rx         0156  8  14 0A B8 0B 00 00 00 00 
   741)      5992.1  Rx         011C  8  84 03 84 03 00 00 00 00 
   742)      5992.6  Rx         012A  8  40 06 B2 07 00 00 08 00 
   743)      5993.1  Rx         0108  8  10 0E 41 00 2D 00 CD 00 
   744)      5993.6  Rx         012B  8  00 00 F9 20 F8 20 00 00 
   745)      5994.1  Rx         012E  8  00 00 00 00 00 00 00 00 
   746)      5994.5  Rx         0113  8  56 81 E8 80 E8 80 E8 80 
   747)      5995.0  Rx         0114  8  E8 80 E8 80 E8 80 E8 80 
   748)      5995.4  Rx         0115  8  E8 80 E8 80 E8 80 E8 80 
   749)      5995.9  Rx         0116  8  E8 80 E8 80 E8 80 E8 80 
   750)      5996.4  Rx         0117  8  E8 80 E8 80 00 00 00 00 
   751)      5996.8  Rx         0112  8  19 19 19 19 19 19 54 24 
   752)      5997.3  Rx         014E  8  19 19 00 19 19 00 00 00 
   753)      5997.8  Rx         012D  8  19 19 19 19 19 19 00 00 
   754)      5998.3  Rx         0150  8  01 00 00 00 00 00 00 00 
   755)      5998.8  Rx         07A3  8  02 01 01 08 00 00 00 00 
   756)      6036.8  Tx         0602  8  00 00 00 00 00 00 01 00 
   757)      6136.8  Tx         0602  8  00 00 00 00 00 00 01 00 
   758)      6139.6  Rx         0300  8  EF 0C E4 0C E4 0C E4 0C 
   759)      6150.3  Rx         0301  8  E4 0C E4 0C E4 0C E4 0C 
   760)      6161.1  Rx         0302  8  E4 0C E4 0C E4 0C E4 0C 
   761)      6171.7  Rx         0303  8  E4 0C E4 0C E4 0C E4 0C 
   762)      6182.2  Rx         0304  8  E4 0C E4 0C B4 0C B5 0C 
   763)      6192.9  Rx         0306  8  19 19 19 19 19 19 19 19 
   764)      6203.4  Rx         0307  8  19 19 19 19 19 19 19 19 
   765)      6214.1  Rx         0305  8  00 00 00 00 00 00 00 00 
   766)      6236.8  Tx         0602  8  00 00 00 00 00 00 01 00 
   767)      6276.1  Rx         0107  8  02 88 01 C2 00 00 00 00 
   768)      6276.6  Rx         0106  8  00 00 00 00 00 00 00 00 
   769)      6277.1  Rx         0258  8  00 00 00 00 00 00 00 00 
   770)      6277.6  Rx         0259  8  00 00 00 00 00 00 00 00 
   771)      6278.1  Rx         0260  8  00 0C 00 00 00 00 00 00 
   772)      6278.6  Rx         07A1  8  02 01 00 00 00 08 01 01 
   773)      6279.0  Rx         07A2  8  02 03 02 01 00 00 00 00 
   774)      6279.5  Rx         012F  8  02 02 01 00 00 00 00 00 
   775)      6280.0  Rx         0110  8  18 79 00 01 1D F7 FF FF 
   776)      6280.5  Rx         0109  8  B6 24 10 27 03 00 52 02 
   777)      6280.9  Rx         012C  8  56 81 E8 80 6E 00 01 00 
   778)      6281.5  Rx         0156  8  14 0A B8 0B 00 00 00 00 
   779)      6281.9  Rx         011C  8  84 03 84 03 00 00 00 00 
   780)      6282.4  Rx         012A  8  40 06 B2 07 00 00 08 00 
   781)      6282.9  Rx         0108  8  10 0E 41 00 2D 00 CD 00 
   782)      6283.4  Rx         012B  8  00 00 FB 20 FB 20 00 00 
   783)      6283.8  Rx         012E  8  00 00 00 00 00 00 00 00 
   784)      6284.3  Rx         0113  8  56 81 E8 80 E8 80 E8 80 
   785)      6284.8  Rx         0114  8  E8 80 E8 80 E8 80 E8 80 
   786)      6285.3  Rx         0115  8  E8 80 E8 80 E8 80 E8 80 
   787)      6285.7  Rx         0116  8  E8 80 E8 80 E8 80 E8 80 
   788)      6286.2  Rx         0117  8  E8 80 E8 80 00 00 00 00 
   789)      6286.7  Rx         0112  8  19 19 19 19 19 19 54 24 
   790)      6287.1  Rx         014E  8  19 19 00 19 19 00 00 00 
   791)      6287.6  Rx         012D  8  19 19 19 19 19 19 00 00 
   792)      6288.1  Rx         0150  8  00 00 00 00 00 00 00 00 
   793)      6288.6  Rx         07A3  8  02 01 01 08 00 00 00 00 
   794)      6336.6  Tx         0602  8  00 00 00 00 00 00 01 00 
   795)      6436.6  Tx         0602  8  00 00 00 00 00 00 01 00 
   796)      6514.8  Rx         0300  8  EF 0C E4 0C E4 0C E4 0C 
   797)      6525.1  Rx         0301  8  E4 0C E4 0C E4 0C E4 0C 
   798)      6535.6  Rx         0302  8  E4 0C E4 0C E4 0C E4 0C 
   799)      6536.8  Tx         0602  8  00 00 00 00 00 00 01 00 
   800)      6546.1  Rx         0303  8  E4 0C E4 0C E4 0C E4 0C 
   801)      6556.5  Rx         0304  8  E4 0C E4 0C B5 0C B5 0C 
   802)      6567.0  Rx         0306  8  19 19 19 19 19 19 19 19 
   803)      6577.5  Rx         0307  8  19 19 19 19 19 19 19 19 
   804)      6585.0  Rx         0107  8  02 88 01 C2 00 00 00 00 
   805)      6585.5  Rx         0106  8  00 00 00 00 00 00 00 00 
   806)      6586.0  Rx         0258  8  00 00 00 00 00 00 00 00 
   807)      6586.5  Rx         0259  8  00 00 00 00 00 00 00 00 
   808)      6587.0  Rx         0260  8  00 0C 00 00 00 00 00 00 
   809)      6587.5  Rx         07A1  8  02 01 00 00 00 08 01 01 
   810)      6587.8  Rx         0305  8  00 00 00 00 00 00 00 00 
   811)      6588.0  Rx         07A2  8  02 03 02 01 00 00 00 00 
   812)      6588.4  Rx         012F  8  02 02 01 00 00 00 00 00 
   813)      6588.9  Rx         0110  8  18 79 00 01 E4 F4 FF FF 
   814)      6589.4  Rx         0109  8  B6 24 10 27 03 00 52 02 
   815)      6589.9  Rx         012C  8  56 81 E8 80 6E 00 01 00 
   816)      6590.4  Rx         0156  8  14 0A B8 0B 00 00 00 00 
   817)      6590.8  Rx         011C  8  84 03 84 03 00 00 00 00 
   818)      6591.3  Rx         012A  8  40 06 B2 07 00 00 08 00 
   819)      6591.8  Rx         0108  8  10 0E 41 00 2D 00 CD 00 
   820)      6592.3  Rx         012B  8  00 00 FE 20 FD 20 00 00 
   821)      6592.8  Rx         012E  8  00 00 00 00 00 00 00 00 
   822)      6593.3  Rx         0113  8  56 81 E8 80 E8 80 E8 80 
   823)      6593.7  Rx         0114  8  E8 80 E8 80 E8 80 E8 80 
   824)      6594.2  Rx         0115  8  E8 80 E8 80 E8 80 E8 80 
   825)      6594.6  Rx         0116  8  E8 80 E8 80 E8 80 E8 80 
   826)      6595.1  Rx         0117  8  E8 80 E8 80 00 00 00 00 
   827)      6595.6  Rx         0112  8  19 19 19 19 19 19 54 24 
   828)      6596.0  Rx         014E  8  19 19 00 19 19 00 00 00 
   829)      6596.5  Rx         012D  8  19 19 19 19 19 19 00 00 
   830)      6597.0  Rx         0150  8  00 00 00 00 00 00 00 00 
   831)      6598.0  Rx         07A3  8  02 01 01 08 00 00 00 00 
   832)      6636.7  Tx         0602  8  00 00 00 00 00 00 01 00 
   833)      6736.5  Tx         0602  8  00 00 00 00 00 00 01 00 
   834)      6836.3  Tx         0602  8  00 00 00 00 00 00 01 00 
   835)      6874.6  Rx         0107  8  02 88 01 C2 00 00 00 00 
   836)      6875.1  Rx         0106  8  00 00 00 00 00 00 00 00 
   837)      6875.6  Rx         0258  8  00 00 00 00 00 00 00 00 
   838)      6876.1  Rx         0259  8  00 00 00 00 00 00 00 00 
   839)      6876.6  Rx         0260  8  00 0C 00 00 00 00 00 00 
   840)      6877.1  Rx         07A1  8  02 01 00 00 00 08 01 01 
   841)      6877.5  Rx         07A2  8  02 03 02 01 00 00 00 00 
   842)      6878.1  Rx         012F  8  02 02 01 00 00 00 00 00 
   843)      6878.5  Rx         0110  8  18 79 00 01 E4 F4 FF FF 
   844)      6879.0  Rx         0109  8  B6 24 10 27 03 00 52 02 
   845)      6879.5  Rx         012C  8  56 81 E8 80 6E 00 01 00 
   846)      6880.0  Rx         0156  8  14 0A B8 0B 00 00 00 00 
   847)      6880.4  Rx         011C  8  84 03 84 03 00 00 00 00 
   848)      6880.9  Rx         012A  8  40 06 B2 07 00 00 08 00 
   849)      6881.4  Rx         0108  8  10 0E 41 00 2D 00 CD 00 
   850)      6881.9  Rx         012B  8  00 00 00 21 FF 20 00 00 
   851)      6882.4  Rx         012E  8  00 00 00 00 00 00 00 00 
   852)      6882.8  Rx         0113  8  56 81 E8 80 E8 80 E8 80 
   853)      6883.3  Rx         0114  8  E8 80 E8 80 E8 80 E8 80 
   854)      6883.8  Rx         0115  8  E8 80 E8 80 E8 80 E8 80 
   855)      6884.2  Rx         0116  8  E8 80 E8 80 E8 80 E8 80 
   856)      6884.7  Rx         0117  8  E8 80 E8 80 00 00 00 00 
   857)      6885.2  Rx         0112  8  19 19 19 19 19 19 54 24 
   858)      6885.6  Rx         014E  8  19 19 00 19 19 00 00 00 
   859)      6886.1  Rx         012D  8  19 19 19 19 19 19 00 00 
   860)      6886.6  Rx         0150  8  01 00 00 00 00 00 00 00 
   861)      6887.1  Rx         07A3  8  02 01 01 08 00 00 00 00 
   862)      6888.8  Rx         0300  8  EF 0C E4 0C E4 0C E4 0C 
   863)      6899.2  Rx         0301  8  E4 0C E4 0C E4 0C E4 0C 
   864)      6909.6  Rx         0302  8  E4 0C E4 0C E4 0C E4 0C 
   865)      6919.9  Rx         0303  8  E4 0C E4 0C E4 0C E4 0C 
   866)      6930.4  Rx         0304  8  E4 0C E4 0C B5 0C B5 0C 
   867)      6936.6  Tx         0602  8  00 00 00 00 00 00 01 00 
   868)      6940.8  Rx         0306  8  19 19 19 19 19 19 19 19 
   869)      6951.4  Rx         0307  8  19 19 19 19 19 19 19 19 
   870)      6961.9  Rx         0305  8  00 00 00 00 00 00 00 00 
   871)      7036.6  Tx         0602  8  00 00 00 00 00 00 01 00 
   872)      7136.4  Tx         0602  8  00 00 00 00 00 00 01 00 
   873)      7183.2  Rx         0107  8  02 88 01 C2 00 00 00 00 
   874)      7183.8  Rx         0106  8  00 00 00 00 00 00 00 00 
   875)      7184.2  Rx         0258  8  00 00 00 00 00 00 00 00 
   876)      7184.7  Rx         0259  8  00 00 00 00 00 00 00 00 
   877)      7185.2  Rx         0260  8  00 0C 00 00 00 00 00 00 
   878)      7185.7  Rx         07A1  8  02 01 00 00 00 08 01 01 
   879)      7186.2  Rx         07A2  8  02 03 02 01 00 00 00 00 
   880)      7186.7  Rx         012F  8  02 02 01 00 00 00 00 00 
   881)      7187.2  Rx         0110  8  18 79 00 01 E4 F4 FF FF 
   882)      7187.6  Rx         0109  8  B6 24 10 27 03 00 52 02 
   883)      7188.1  Rx         012C  8  56 81 E8 80 6E 00 01 00 
   884)      7188.6  Rx         0156  8  14 0A B8 0B 00 00 00 00 
   885)      7189.1  Rx         011C  8  84 03 84 03 00 00 00 00 
   886)      7189.6  Rx         012A  8  40 06 B2 07 00 00 08 00 
   887)      7190.0  Rx         0108  8  10 0E 41 00 2D 00 CD 00 
   888)      7190.5  Rx         012B  8  00 00 02 21 02 21 00 00 
   889)      7191.0  Rx         012E  8  00 00 00 00 00 00 00 00 
   890)      7191.5  Rx         0113  8  56 81 E8 80 E8 80 E8 80 
   891)      7191.9  Rx         0114  8  E8 80 E8 80 E8 80 E8 80 
   892)      7192.4  Rx         0115  8  E8 80 E8 80 E8 80 E8 80 
   893)      7192.9  Rx         0116  8  E8 80 E8 80 E8 80 E8 80 
   894)      7193.4  Rx         0117  8  E8 80 E8 80 00 00 00 00 
   895)      7193.8  Rx         0112  8  19 19 19 19 19 19 54 24 
   896)      7194.3  Rx         014E  8  19 19 00 19 19 00 00 00 
   897)      7194.8  Rx         012D  8  19 19 19 19 19 19 00 00 
   898)      7195.2  Rx         0150  8  01 00 00 00 00 00 00 00 
   899)      7195.7  Rx         07A3  8  02 01 01 08 00 00 00 00 
   900)      7236.6  Tx         0602  8  00 00 00 00 00 00 01 00 
   901)      7262.7  Rx         0300  8  EF 0C E4 0C E4 0C E4 0C 
   902)      7273.1  Rx         0301  8  E4 0C E4 0C E4 0C E4 0C 
   903)      7283.7  Rx         0302  8  E4 0C E4 0C E4 0C E4 0C 
   904)      7294.2  Rx         0303  8  E4 0C E4 0C E4 0C E4 0C 
   905)      7304.9  Rx         0304  8  E4 0C E4 0C B5 0C B6 0C 
   906)      7315.5  Rx         0306  8  19 19 19 19 19 19 19 19 
   907)      7326.1  Rx         0307  8  19 19 19 19 19 19 19 19 
   908)      7336.5  Tx         0602  8  00 00 00 00 00 00 01 00 
   909)      7336.7  Rx         0305  8  00 00 00 00 00 00 00 00 
   910)      7435.9  Tx         0602  8  00 00 00 00 00 00 01 00 
   911)      7473.2  Rx         0107  8  02 88 01 C2 00 00 00 00 
   912)      7473.7  Rx         0106  8  00 00 00 00 00 00 00 00 
   913)      7474.2  Rx         0258  8  00 00 00 00 00 00 00 00 
   914)      7474.8  Rx         0259  8  00 00 00 00 00 00 00 00 
   915)      7475.2  Rx         0260  8  00 0C 00 00 00 00 00 00 
   916)      7475.7  Rx         07A1  8  02 01 00 00 00 08 01 01 
   917)      7476.2  Rx         07A2  8  02 03 02 01 00 00 00 00 
   918)      7476.7  Rx         012F  8  02 02 01 00 00 00 00 00 
   919)      7477.2  Rx         0110  8  18 79 00 01 1D F7 FF FF 
   920)      7477.7  Rx         0109  8  B6 24 10 27 03 00 52 02 
   921)      7478.1  Rx         012C  8  56 81 E8 80 6E 00 01 00 
   922)      7478.6  Rx         0156  8  14 0A B8 0B 00 00 00 00 
   923)      7479.1  Rx         011C  8  84 03 84 03 00 00 00 00 
   924)      7479.6  Rx         012A  8  40 06 B2 07 00 00 08 00 
   925)      7480.0  Rx         0108  8  10 0E 41 00 2D 00 CD 00 
   926)      7480.5  Rx         012B  8  00 00 05 21 04 21 00 00 
   927)      7481.0  Rx         012E  8  00 00 00 00 00 00 00 00 
   928)      7481.5  Rx         0113  8  56 81 E8 80 E8 80 E8 80 
   929)      7482.0  Rx         0114  8  E8 80 E8 80 E8 80 E8 80 
   930)      7482.4  Rx         0115  8  E8 80 E8 80 E8 80 E8 80 
   931)      7482.9  Rx         0116  8  E8 80 E8 80 E8 80 E8 80 
   932)      7483.4  Rx         0117  8  E8 80 E8 80 00 00 00 00 
   933)      7483.8  Rx         0112  8  19 19 19 19 19 19 54 24 
   934)      7484.3  Rx         014E  8  19 19 00 19 19 00 00 00 
   935)      7484.7  Rx         012D  8  19 19 19 19 19 19 00 00 
   936)      7485.2  Rx         0150  8  00 00 00 00 00 00 00 00 
   937)      7485.7  Rx         07A3  8  02 01 01 08 00 00 00 00 
   938)      7536.2  Tx         0602  8  00 00 00 00 00 00 01 00 
   939)      7637.1  Tx         0602  8  00 00 00 00 00 00 01 00 
   940)      7637.3  Rx         0300  8  EF 0C E4 0C E4 0C E4 0C 
   941)      7647.9  Rx         0301  8  E4 0C E4 0C E4 0C E4 0C 
   942)      7658.5  Rx         0302  8  E4 0C E4 0C E4 0C E4 0C 
   943)      7668.9  Rx         0303  8  E4 0C E4 0C E4 0C E4 0C 
   944)      7679.5  Rx         0304  8  E4 0C E4 0C B5 0C B6 0C 
   945)      7690.1  Rx         0306  8  19 19 19 19 19 19 19 19 
   946)      7700.7  Rx         0307  8  19 19 19 19 19 19 19 19 
   947)      7711.1  Rx         0305  8  00 00 00 00 00 00 00 00 
   948)      7736.4  Tx         0602  8  00 00 00 00 00 00 01 00 
   949)      7781.8  Rx         0107  8  02 88 01 C2 00 00 00 00 
   950)      7782.3  Rx         0106  8  00 00 00 00 00 00 00 00 
   951)      7782.8  Rx         0258  8  00 00 00 00 00 00 00 00 
   952)      7783.3  Rx         0259  8  00 00 00 00 00 00 00 00 
   953)      7783.8  Rx         0260  8  00 0C 00 00 00 00 00 00 
   954)      7784.3  Rx         07A1  8  02 01 00 00 00 08 01 01 
   955)      7784.8  Rx         07A2  8  02 03 02 01 00 00 00 00 
   956)      7785.2  Rx         012F  8  02 02 01 00 00 00 00 00 
   957)      7785.7  Rx         0110  8  18 79 00 01 E4 F4 FF FF 
   958)      7786.2  Rx         0109  8  B6 24 10 27 03 00 52 02 
   959)      7786.7  Rx         012C  8  56 81 E8 80 6E 00 01 00 
   960)      7787.2  Rx         0156  8  14 0A B8 0B 00 00 00 00 
   961)      7787.6  Rx         011C  8  84 03 84 03 00 00 00 00 
   962)      7788.1  Rx         012A  8  40 06 B2 07 00 00 08 00 
   963)      7788.6  Rx         0108  8  10 0E 41 00 2D 00 CD 00 
   964)      7789.1  Rx         012B  8  00 00 07 21 06 21 00 00 
   965)      7789.6  Rx         012E  8  00 00 00 00 00 00 00 00 
   966)      7790.1  Rx         0113  8  56 81 E8 80 E8 80 E8 80 
   967)      7790.5  Rx         0114  8  E8 80 E8 80 E8 80 E8 80 
   968)      7790.9  Rx         0115  8  E8 80 E8 80 E8 80 E8 80 
   969)      7791.4  Rx         0116  8  E8 80 E8 80 E8 80 E8 80 
   970)      7791.9  Rx         0117  8  E8 80 E8 80 00 00 00 00 
   971)      7792.4  Rx         0112  8  19 19 19 19 19 19 54 24 
   972)      7792.8  Rx         014E  8  19 19 00 19 19 00 00 00 
   973)      7793.3  Rx         012D  8  19 19 19 19 19 19 00 00 
   974)      7793.8  Rx         0150  8  00 00 00 00 00 00 00 00 
   975)      7794.3  Rx         07A3  8  02 01 01 08 00 00 00 00 
   976)      7836.0  Tx         0602  8  00 00 00 00 00 00 01 00 
   977)      7936.6  Tx         0602  8  00 00 00 00 00 00 01 00 
   978)      8012.0  Rx         0300  8  EF 0C E4 0C E4 0C E4 0C 
   979)      8022.8  Rx         0301  8  E4 0C E4 0C E4 0C E4 0C 
   980)      8033.4  Rx         0302  8  E4 0C E4 0C E4 0C E4 0C 
   981)      8036.4  Tx         0602  8  00 00 00 00 00 00 01 00 
   982)      8044.2  Rx         0303  8  E4 0C E4 0C E4 0C E4 0C 
   983)      8054.7  Rx         0304  8  E4 0C E4 0C B6 0C B6 0C 
   984)      8065.5  Rx         0306  8  19 19 19 19 19 19 19 19 
   985)      8071.9  Rx         0107  8  02 88 01 C2 00 00 00 00 
   986)      8072.5  Rx         0106  8  00 00 00 00 00 00 00 00 
   987)      8073.0  Rx         0258  8  00 00 00 00 00 00 00 00 
   988)      8073.4  Rx         0259  8  00 00 00 00 00 00 00 00 
   989)      8074.0  Rx         0260  8  00 0C 00 00 00 00 00 00 
   990)      8074.5  Rx         07A1  8  02 01 00 00 00 08 01 01 
   991)      8074.9  Rx         07A2  8  02 03 02 01 00 00 00 00 
   992)      8075.4  Rx         012F  8  02 02 01 00 00 00 00 00 
   993)      8075.9  Rx         0110  8  18 79 00 01 1D F7 FF FF 
   994)      8076.0  Rx         0307  8  19 19 19 19 19 19 19 19 
   995)      8076.4  Rx         0109  8  B6 24 10 27 03 00 52 02 
   996)      8076.9  Rx         012C  8  56 81 E8 80 6E 00 01 00 
   997)      8077.3  Rx         0156  8  14 0A B8 0B 00 00 00 00 
   998)      8077.8  Rx         011C  8  84 03 84 03 00 00 00 00 
   999)      8078.3  Rx         012A  8  40 06 B2 07 00 00 08 00 
  1000)      8078.8  Rx         0108  8  10 0E 41 00 2D 00 CD 00 
  1001)      8079.2  Rx         012B  8  00 00 09 21 08 21 00 00 
  1002)      8079.8  Rx         012E  8  00 00 00 00 00 00 00 00 
  1003)      8080.2  Rx         0113  8  56 81 E8 80 E8 80 E8 80 
  1004)      8080.7  Rx         0114  8  E8 80 E8 80 E8 80 E8 80 
  1005)      8081.1  Rx         0115  8  E8 80 E8 80 E8 80 E8 80 
  1006)      8082.1  Rx         0116  8  E8 80 E8 80 E8 80 E8 80 
  1007)      8082.5  Rx         07A3  8  02 01 01 08 00 00 00 00 
  1008)      8083.0  Rx         0117  8  E8 80 E8 80 00 00 00 00 
  1009)      8083.7  Rx         0112  8  19 19 19 19 19 19 54 24 
  1010)      8084.1  Rx         014E  8  19 19 00 19 19 00 00 00 
  1011)      8084.6  Rx         012D  8  19 19 19 19 19 19 00 00 
  1012)      8085.2  Rx         0150  8  00 00 00 00 00 00 00 00 
  1013)      8086.4  Rx         0305  8  00 00 00 00 00 00 00 00 
  1014)      8136.1  Tx         0602  8  00 00 00 00 00 00 01 00 
  1015)      8236.5  Tx         0602  8  00 00 00 00 00 00 01 00 
  1016)      8335.9  Tx         0602  8  00 00 00 00 00 00 01 00 
  1017)      8380.3  Rx         0107  8  02 88 01 C2 00 00 00 00 
  1018)      8380.8  Rx         0106  8  00 00 00 00 00 00 00 00 
  1019)      8381.3  Rx         0258  8  00 00 00 00 00 00 00 00 
  1020)      8381.8  Rx         0259  8  00 00 00 00 00 00 00 00 
  1021)      8382.3  Rx         0260  8  00 0C 00 00 00 00 00 00 
  1022)      8382.8  Rx         07A1  8  02 01 00 00 00 08 01 01 
  1023)      8383.3  Rx         07A2  8  02 03 02 01 00 00 00 00 
  1024)      8383.7  Rx         012F  8  02 02 01 00 00 00 00 00 
  1025)      8384.2  Rx         0110  8  18 79 00 01 E4 F4 FF FF 
  1026)      8384.7  Rx         0109  8  B6 24 10 27 03 00 52 02 
  1027)      8385.2  Rx         012C  8  56 81 E8 80 6E 00 01 00 
  1028)      8385.6  Rx         0156  8  14 0A B8 0B 00 00 00 00 
  1029)      8386.1  Rx         011C  8  84 03 84 03 00 00 00 00 
  1030)      8386.6  Rx         012A  8  40 06 B2 07 00 00 08 00 
  1031)      8387.1  Rx         0108  8  10 0E 41 00 2D 00 CD 00 
  1032)      8387.3  Rx         0300  8  EF 0C E4 0C E4 0C E4 0C 
  1033)      8387.6  Rx         012B  8  00 00 0C 21 0B 21 00 00 
  1034)      8388.1  Rx         012E  8  00 00 00 00 00 00 00 00 
  1035)      8388.5  Rx         0113  8  56 81 E8 80 E8 80 E8 80 
  1036)      8389.0  Rx         0114  8  E8 80 E8 80 E8 80 E8 80 
  1037)      8389.4  Rx         0115  8  E8 80 E8 80 E8 80 E8 80 
  1038)      8389.9  Rx         0116  8  E8 80 E8 80 E8 80 E8 80 
  1039)      8390.4  Rx         0117  8  E8 80 E8 80 00 00 00 00 
  1040)      8390.8  Rx         0112  8  19 19 19 19 19 19 54 24 
  1041)      8391.3  Rx         014E  8  19 19 00 19 19 00 00 00 
  1042)      8391.8  Rx         012D  8  19 19 19 19 19 19 00 00 
  1043)      8392.3  Rx         0150  8  01 00 00 00 00 00 00 00 
  1044)      8393.2  Rx         07A3  8  02 01 01 08 00 00 00 00 
  1045)      8398.0  Rx         0301  8  E4 0C E4 0C E4 0C E4 0C 
  1046)      8408.6  Rx         0302  8  E4 0C E4 0C E4 0C E4 0C 
  1047)      8419.2  Rx         0303  8  E4 0C E4 0C E4 0C E4 0C 
  1048)      8429.6  Rx         0304  8  E4 0C E4 0C B6 0C B6 0C 
  1049)      8436.8  Tx         0602  8  00 00 00 00 00 00 01 00 
  1050)      8439.9  Rx         0306  8  19 19 19 19 19 19 19 19 
  1051)      8450.3  Rx         0307  8  19 19 19 19 19 19 19 19 
  1052)      8460.6  Rx         0305  8  00 00 00 00 00 00 00 00 
  1053)      8536.8  Tx         0602  8  00 00 00 00 00 00 01 00 
  1054)      8636.7  Tx         0602  8  00 00 00 00 00 00 01 00 
  1055)      8670.5  Rx         0107  8  02 88 01 C2 00 00 00 00 
  1056)      8671.0  Rx         0106  8  00 00 00 00 00 00 00 00 
  1057)      8671.5  Rx         0258  8  00 00 00 00 00 00 00 00 
  1058)      8672.0  Rx         0259  8  00 00 00 00 00 00 00 00 
  1059)      8672.5  Rx         0260  8  00 0C 00 00 00 00 00 00 
  1060)      8673.0  Rx         07A1  8  02 01 00 00 00 08 01 01 
  1061)      8673.5  Rx         07A2  8  02 03 02 01 00 00 00 00 
  1062)      8674.0  Rx         012F  8  02 02 01 00 00 00 00 00 
  1063)      8674.4  Rx         0110  8  18 79 00 01 E4 F4 FF FF 
  1064)      8674.9  Rx         0109  8  B6 24 10 27 03 00 52 02 
  1065)      8675.4  Rx         012C  8  56 81 E8 80 6E 00 01 00 
  1066)      8675.9  Rx         0156  8  14 0A B8 0B 00 00 00 00 
  1067)      8676.4  Rx         011C  8  84 03 84 03 00 00 00 00 
  1068)      8676.8  Rx         012A  8  40 06 B2 07 00 00 08 00 
  1069)      8677.3  Rx         0108  8  10 0E 41 00 2D 00 CD 00 
  1070)      8677.8  Rx         012B  8  00 00 0E 21 0D 21 00 00 
  1071)      8678.3  Rx         012E  8  00 00 00 00 00 00 00 00 
  1072)      8678.8  Rx         0113  8  56 81 E8 80 E8 80 E8 80 
  1073)      8679.2  Rx         0114  8  E8 80 E8 80 E8 80 E8 80 
  1074)      8679.7  Rx         0115  8  E8 80 E8 80 E8 80 E8 80 
  1075)      8680.1  Rx         0116  8  E8 80 E8 80 E8 80 E8 80 
  1076)      8680.6  Rx         0117  8  E8 80 E8 80 00 00 00 00 
  1077)      8681.1  Rx         0112  8  19 19 19 19 19 19 54 24 
  1078)      8681.5  Rx         014E  8  19 19 00 19 19 00 00 00 
  1079)      8682.0  Rx         012D  8  19 19 19 19 19 19 00 00 
  1080)      8682.5  Rx         0150  8  00 00 00 00 00 00 00 00 
  1081)      8683.0  Rx         07A3  8  02 01 01 08 00 00 00 00 
  1082)      8736.6  Tx         0602  8  00 00 00 00 00 00 01 00 
  1083)      8761.2  Rx         0300  8  EF 0C E4 0C E4 0C E4 0C 
  1084)      8771.5  Rx         0301  8  E4 0C E4 0C E4 0C E4 0C 
  1085)      8782.0  Rx         0302  8  E4 0C E4 0C E4 0C E4 0C 
  1086)      8792.3  Rx         0303  8  E4 0C E4 0C E4 0C E4 0C 
  1087)      8802.5  Rx         0304  8  E4 0C E4 0C B6 0C B6 0C 
  1088)      8812.8  Rx         0306  8  19 19 19 19 19 19 19 19 
  1089)      8823.5  Rx         0307  8  19 19 19 19 19 19 19 19 
  1090)      8833.6  Rx         0305  8  00 00 00 00 00 00 00 00 
  1091)      8836.7  Tx         0602  8  00 00 00 00 00 00 01 00 
  1092)      8936.6  Tx         0602  8  00 00 00 00 00 00 01 00 
  1093)      8979.1  Rx         0107  8  02 88 01 C2 00 00 00 00 
  1094)      8979.6  Rx         0106  8  00 00 00 00 00 00 00 00 
  1095)      8980.1  Rx         0258  8  00 00 00 00 00 00 00 00 
  1096)      8980.6  Rx         0259  8  00 00 00 00 00 00 00 00 
  1097)      8981.1  Rx         0260  8  00 0C 00 00 00 00 00 00 
  1098)      8981.6  Rx         07A1  8  02 01 00 00 00 08 01 01 
  1099)      8982.1  Rx         07A2  8  02 03 02 01 00 00 00 00 
  1100)      8982.5  Rx         012F  8  02 02 01 00 00 00 00 00 
  1101)      8983.0  Rx         0110  8  18 79 00 01 E4 F4 FF FF 
  1102)      8983.5  Rx         0109  8  B6 24 10 27 03 00 52 02 
  1103)      8984.0  Rx         012C  8  56 81 E8 80 6E 00 01 00 
  1104)      8984.5  Rx         0156  8  14 0A B8 0B 00 00 00 00 
  1105)      8984.9  Rx         011C  8  84 03 84 03 00 00 00 00 
  1106)      8985.4  Rx         012A  8  40 06 B2 07 00 00 08 00 
  1107)      8985.9  Rx         0108  8  10 0E 41 00 2D 00 CD 00 
  1108)      8986.4  Rx         012B  8  00 00 10 21 0F 21 00 00 
  1109)      8986.9  Rx         012E  8  00 00 00 00 00 00 00 00 
  1110)      8987.4  Rx         0113  8  56 81 E8 80 E8 80 E8 80 
  1111)      8987.8  Rx         0114  8  E8 80 E8 80 E8 80 E8 80 
  1112)      8988.3  Rx         0115  8  E8 80 E8 80 E8 80 E8 80 
  1113)      8988.7  Rx         0116  8  E8 80 E8 80 E8 80 E8 80 
  1114)      8989.2  Rx         07A3  8  02 01 01 08 00 00 00 00 
  1115)      8989.7  Rx         0117  8  E8 80 E8 80 00 00 00 00 
  1116)      8990.1  Rx         0112  8  19 19 19 19 19 19 54 24 
  1117)      8990.9  Rx         014E  8  19 19 00 19 19 00 00 00 
  1118)      8991.4  Rx         012D  8  19 19 19 19 19 19 00 00 
  1119)      8992.0  Rx         0150  8  00 00 00 00 00 00 00 00 
  1120)      9036.4  Tx         0602  8  00 00 00 00 00 00 01 00 
  1121)      9134.3  Rx         0300  8  EF 0C E4 0C E4 0C E4 0C 
  1122)      9136.0  Tx         0602  8  00 00 00 00 00 00 01 00 
  1123)      9145.0  Rx         0301  8  E4 0C E4 0C E4 0C E4 0C 
  1124)      9155.5  Rx         0302  8  E4 0C E4 0C E4 0C E4 0C 
  1125)      9166.3  Rx         0303  8  E4 0C E4 0C E4 0C E4 0C 
  1126)      9177.1  Rx         0304  8  E4 0C E4 0C B6 0C B7 0C 
  1127)      9187.9  Rx         0306  8  19 19 19 19 19 19 19 19 
  1128)      9198.6  Rx         0307  8  19 19 19 19 19 19 19 19 
  1129)      9209.3  Rx         0305  8  00 00 00 00 00 00 00 00 
  1130)      9236.0  Tx         0602  8  00 00 00 00 00 00 01 00 
  1131)      9269.0  Rx         0107  8  02 88 01 C2 00 00 00 00 
  1132)      9269.5  Rx         0106  8  00 00 00 00 00 00 00 00 
  1133)      9270.0  Rx         0258  8  00 00 00 00 00 00 00 00 
  1134)      9270.5  Rx         0259  8  00 00 00 00 00 00 00 00 
  1135)      9271.0  Rx         0260  8  00 0C 00 00 00 00 00 00 
  1136)      9271.5  Rx         07A1  8  02 01 00 00 00 08 01 01 
  1137)      9272.0  Rx         07A2  8  02 03 02 01 00 00 00 00 
  1138)      9272.5  Rx         012F  8  02 02 01 00 00 00 00 00 
  1139)      9273.0  Rx         0110  8  18 79 00 01 E4 F4 FF FF 
  1140)      9273.5  Rx         0109  8  B6 24 10 27 03 00 52 02 
  1141)      9273.9  Rx         012C  8  56 81 E8 80 6E 00 01 00 
  1142)      9274.4  Rx         0156  8  14 0A B8 0B 00 00 00 00 
  1143)      9274.9  Rx         011C  8  84 03 84 03 00 00 00 00 
  1144)      9275.4  Rx         012A  8  40 06 B2 07 00 00 08 00 
  1145)      9275.9  Rx         0108  8  10 0E 41 00 2D 00 CD 00 
  1146)      9276.3  Rx         012B  8  00 00 12 21 12 21 00 00 
  1147)      9276.8  Rx         012E  8  00 00 00 00 00 00 00 00 
  1148)      9277.3  Rx         0113  8  56 81 E8 80 E8 80 E8 80 
  1149)      9277.8  Rx         0114  8  E8 80 E8 80 E8 80 E8 80 
  1150)      9278.2  Rx         0115  8  E8 80 E8 80 E8 80 E8 80 
  1151)      9278.7  Rx         0116  8  E8 80 E8 80 E8 80 E8 80 
  1152)      9279.1  Rx         0117  8  E8 80 E8 80 00 00 00 00 
  1153)      9279.6  Rx         0112  8  19 19 19 19 19 19 54 24 
  1154)      9280.1  Rx         014E  8  19 19 00 19 19 00 00 00 
  1155)      9280.5  Rx         012D  8  19 19 19 19 19 19 00 00 
  1156)      9281.1  Rx         0150  8  00 00 00 00 00 00 00 00 
  1157)      9281.5  Rx         07A3  8  02 01 01 08 00 00 00 00 
  1158)      9336.4  Tx         0602  8  00 00 00 00 00 00 01 00 
  1159)      9436.5  Tx         0602  8  00 00 00 00 00 00 01 00 
  1160)      9510.2  Rx         0300  8  EF 0C E4 0C E4 0C E4 0C 
  1161)      9521.0  Rx         0301  8  E4 0C E4 0C E4 0C E4 0C 
  1162)      9531.5  Rx         0302  8  E4 0C E4 0C E4 0C E4 0C 
  1163)      9536.5  Tx         0602  8  00 00 00 00 00 00 01 00 
  1164)      9542.3  Rx         0303  8  E4 0C E4 0C E4 0C E4 0C 
  1165)      9552.7  Rx         0304  8  E4 0C E4 0C B6 0C B7 0C 
  1166)      9563.5  Rx         0306  8  19 19 19 19 19 19 19 19 
  1167)      9574.2  Rx         0307  8  19 19 19 19 19 19 19 19 
  1168)      9577.4  Rx         0107  8  02 88 01 C2 00 00 00 00 
  1169)      9577.9  Rx         0106  8  00 00 00 00 00 00 00 00 
  1170)      9578.4  Rx         0258  8  00 00 00 00 00 00 00 00 
  1171)      9578.9  Rx         0259  8  00 00 00 00 00 00 00 00 
  1172)      9579.4  Rx         0260  8  00 0C 00 00 00 00 00 00 
  1173)      9579.9  Rx         07A1  8  02 01 00 00 00 08 01 01 
  1174)      9580.4  Rx         07A2  8  02 03 02 01 00 00 00 00 
  1175)      9580.9  Rx         012F  8  02 02 01 00 00 00 00 00 
  1176)      9581.3  Rx         0110  8  18 79 00 01 E4 F4 FF FF 
  1177)      9581.8  Rx         0109  8  B6 24 10 27 03 00 52 02 
  1178)      9582.3  Rx         012C  8  56 81 E8 80 6E 00 01 00 
  1179)      9582.8  Rx         0156  8  14 0A B8 0B 00 00 00 00 
  1180)      9583.3  Rx         011C  8  84 03 84 03 00 00 00 00 
  1181)      9583.7  Rx         012A  8  40 06 B2 07 00 00 08 00 
  1182)      9584.7  Rx         0305  8  00 00 00 00 00 00 00 00 
  1183)      9584.7  Rx         0108  8  10 0E 41 00 2D 00 CD 00 
  1184)      9584.7  Rx         012B  8  00 00 15 21 14 21 00 00 
  1185)      9585.2  Rx         012E  8  00 00 00 00 00 00 00 00 
  1186)      9585.7  Rx         0113  8  56 81 E8 80 E8 80 E8 80 
  1187)      9586.1  Rx         0114  8  E8 80 E8 80 E8 80 E8 80 
  1188)      9586.6  Rx         0115  8  E8 80 E8 80 E8 80 E8 80 
  1189)      9587.1  Rx         0116  8  E8 80 E8 80 E8 80 E8 80 
  1190)      9587.5  Rx         0117  8  E8 80 E8 80 00 00 00 00 
  1191)      9588.0  Rx         0112  8  19 19 19 19 19 19 54 24 
  1192)      9588.5  Rx         014E  8  19 19 00 19 19 00 00 00 
  1193)      9588.9  Rx         012D  8  19 19 19 19 19 19 00 00 
  1194)      9589.4  Rx         0150  8  01 00 00 00 00 00 00 00 
  1195)      9590.4  Rx         07A3  8  02 01 01 08 00 00 00 00 
  1196)      9636.4  Tx         0602  8  00 00 00 00 00 00 01 00 
  1197)      9736.1  Tx         0602  8  00 00 00 00 00 00 01 00 
  1198)      9836.8  Tx         0602  8  00 00 00 00 00 00 01 00 
  1199)      9867.3  Rx         0107  8  02 88 01 C2 00 00 00 00 
  1200)      9867.8  Rx         0106  8  00 00 00 00 00 00 00 00 
  1201)      9868.3  Rx         0258  8  00 00 00 00 00 00 00 00 
  1202)      9868.8  Rx         0259  8  00 00 00 00 00 00 00 00 
  1203)      9869.3  Rx         0260  8  00 0C 00 00 00 00 00 00 
  1204)      9869.8  Rx         07A1  8  02 01 00 00 00 08 01 01 
  1205)      9870.3  Rx         07A2  8  02 03 02 01 00 00 00 00 
  1206)      9870.8  Rx         012F  8  02 02 01 00 00 00 00 00 
  1207)      9871.3  Rx         0110  8  18 79 00 01 E4 F4 FF FF 
  1208)      9871.7  Rx         0109  8  B6 24 10 27 03 00 52 02 
  1209)      9872.2  Rx         012C  8  56 81 E8 80 6E 00 01 00 
  1210)      9872.7  Rx         0156  8  14 0A B8 0B 00 00 00 00 
  1211)      9873.2  Rx         011C  8  84 03 84 03 00 00 00 00 
  1212)      9873.6  Rx         012A  8  40 06 B2 07 00 00 08 00 
  1213)      9874.1  Rx         0108  8  10 0E 41 00 2D 00 CD 00 
  1214)      9874.6  Rx         012B  8  00 00 17 21 16 21 00 00 
  1215)      9875.1  Rx         012E  8  00 00 00 00 00 00 00 00 
  1216)      9875.6  Rx         0113  8  56 81 E8 80 E8 80 E8 80 
  1217)      9876.0  Rx         0114  8  E8 80 E8 80 E8 80 E8 80 
  1218)      9876.5  Rx         0115  8  E8 80 E8 80 E8 80 E8 80 
  1219)      9877.0  Rx         0116  8  E8 80 E8 80 E8 80 E8 80 
  1220)      9877.4  Rx         0117  8  E8 80 E8 80 00 00 00 00 
  1221)      9877.9  Rx         0112  8  19 19 19 19 19 19 54 24 
  1222)      9878.4  Rx         014E  8  19 19 00 19 19 00 00 00 
  1223)      9878.8  Rx         012D  8  19 19 19 19 19 19 00 00 
  1224)      9879.3  Rx         0150  8  01 00 00 00 00 00 00 00 
  1225)      9879.8  Rx         07A3  8  02 01 01 08 00 00 00 00 
  1226)      9885.3  Rx         0300  8  EF 0C E4 0C E4 0C E4 0C 
  1227)      9896.1  Rx         0301  8  E4 0C E4 0C E4 0C E4 0C 
  1228)      9906.5  Rx         0302  8  E4 0C E4 0C E4 0C E4 0C 
  1229)      9917.2  Rx         0303  8  E4 0C E4 0C E4 0C E4 0C 
  1230)      9927.8  Rx         0304  8  E4 0C E4 0C B6 0C B7 0C 
  1231)      9936.4  Tx         0602  8  00 00 00 00 00 00 01 00 
  1232)      9938.5  Rx         0306  8  19 19 19 19 19 19 19 19 
  1233)      9949.0  Rx         0307  8  19 19 19 19 19 19 19 19 
  1234)      9959.4  Rx         0305  8  00 00 00 00 00 00 00 00 
  1235)     10036.3  Tx         0602  8  00 00 00 00 00 00 01 00 
  1236)     10136.2  Tx         0602  8  00 00 00 00 00 00 01 00 
  1237)     10176.3  Rx         0107  8  02 88 01 C2 00 00 00 00 
  1238)     10176.8  Rx         0106  8  00 00 00 00 00 00 00 00 
  1239)     10177.3  Rx         0258  8  00 00 00 00 00 00 00 00 
  1240)     10177.8  Rx         0259  8  00 00 00 00 00 00 00 00 
  1241)     10178.3  Rx         0260  8  00 0C 00 00 00 00 00 00 
  1242)     10178.8  Rx         07A1  8  02 01 00 00 00 08 01 01 
  1243)     10179.2  Rx         07A2  8  02 03 02 01 00 00 00 00 
  1244)     10179.7  Rx         012F  8  02 02 01 00 00 00 00 00 
  1245)     10180.2  Rx         0110  8  18 79 00 01 1D F7 FF FF 
  1246)     10180.7  Rx         0109  8  B6 24 10 27 03 00 52 02 
  1247)     10181.1  Rx         012C  8  56 81 E8 80 6E 00 01 00 
  1248)     10181.6  Rx         0156  8  14 0A B8 0B 00 00 00 00 
  1249)     10182.1  Rx         011C  8  84 03 84 03 00 00 00 00 
  1250)     10182.6  Rx         012A  8  40 06 B2 07 00 00 08 00 
  1251)     10183.1  Rx         0108  8  10 0E 41 00 2D 00 CD 00 
  1252)     10183.5  Rx         012B  8  00 00 19 21 19 21 00 00 
  1253)     10184.0  Rx         012E  8  00 00 00 00 00 00 00 00 
  1254)     10184.5  Rx         0113  8  56 81 E8 80 E8 80 E8 80 
  1255)     10185.0  Rx         0114  8  E8 80 E8 80 E8 80 E8 80 
  1256)     10185.4  Rx         0115  8  E8 80 E8 80 E8 80 E8 80 
  1257)     10185.9  Rx         0116  8  E8 80 E8 80 E8 80 E8 80 
  1258)     10186.4  Rx         0117  8  E8 80 E8 80 00 00 00 00 
  1259)     10186.8  Rx         0112  8  19 19 19 19 19 19 54 24 
  1260)     10187.3  Rx         014E  8  19 19 00 19 19 00 00 00 
  1261)     10187.8  Rx         012D  8  19 19 19 19 19 19 00 00 
  1262)     10188.3  Rx         0150  8  00 00 00 00 00 00 00 00 
  1263)     10188.7  Rx         07A3  8  02 01 01 08 00 00 00 00 
  1264)     10236.3  Tx         0602  8  00 00 00 00 00 00 01 00 
  1265)     10260.1  Rx         0300  8  EF 0C E4 0C E4 0C E4 0C 
  1266)     10270.9  Rx         0301  8  E4 0C E4 0C E4 0C E4 0C 
  1267)     10281.5  Rx         0302  8  E4 0C E4 0C E4 0C E4 0C 
  1268)     10292.1  Rx         0303  8  E4 0C E4 0C E4 0C E4 0C 
  1269)     10302.8  Rx         0304  8  E4 0C E4 0C B7 0C B7 0C 
  1270)     10313.6  Rx         0306  8  19 19 19 19 19 19 19 19 
  1271)     10324.2  Rx         0307  8  19 19 19 19 19 19 19 19 
  1272)     10334.8  Rx         0305  8  00 00 00 00 00 00 00 00 
  1273)     10335.9  Tx         0602  8  00 00 00 00 00 00 01 00 
  1274)     10436.6  Tx         0602  8  00 00 00 00 00 00 01 00 
  1275)     10465.9  Rx         0107  8  02 88 01 C2 00 00 00 00 
  1276)     10466.4  Rx         0106  8  00 00 00 00 00 00 00 00 
  1277)     10466.9  Rx         0258  8  00 00 00 00 00 00 00 00 
  1278)     10467.4  Rx         0259  8  00 00 00 00 00 00 00 00 
  1279)     10467.9  Rx         0260  8  00 0C 00 00 00 00 00 00 
  1280)     10468.4  Rx         07A1  8  02 01 00 00 00 08 01 01 
  1281)     10468.9  Rx         07A2  8  02 03 02 01 00 00 00 00 
  1282)     10469.4  Rx         012F  8  02 02 01 00 00 00 00 00 
  1283)     10469.8  Rx         0110  8  18 79 00 01 E4 F4 FF FF 
  1284)     10470.3  Rx         0109  8  B6 24 10 27 03 00 52 02 
  1285)     10470.8  Rx         012C  8  56 81 E8 80 6E 00 01 00 
  1286)     10471.3  Rx         0156  8  14 0A B8 0B 00 00 00 00 
  1287)     10471.8  Rx         011C  8  84 03 84 03 00 00 00 00 
  1288)     10472.2  Rx         012A  8  40 06 B2 07 00 00 08 00 
  1289)     10472.7  Rx         0108  8  10 0E 41 00 2D 00 CD 00 
  1290)     10473.2  Rx         012B  8  00 00 1C 21 1B 21 00 00 
  1291)     10473.7  Rx         012E  8  00 00 00 00 00 00 00 00 
  1292)     10474.2  Rx         0113  8  56 81 E8 80 E8 80 E8 80 
  1293)     10474.6  Rx         0114  8  E8 80 E8 80 E8 80 E8 80 
  1294)     10475.1  Rx         0115  8  E8 80 E8 80 E8 80 E8 80 
  1295)     10475.6  Rx         0116  8  E8 80 E8 80 E8 80 E8 80 
  1296)     10476.0  Rx         0117  8  E8 80 E8 80 00 00 00 00 
  1297)     10476.5  Rx         0112  8  19 19 19 19 19 19 54 24 
  1298)     10477.0  Rx         014E  8  19 19 00 19 19 00 00 00 
  1299)     10477.4  Rx         012D  8  19 19 19 19 19 19 00 00 
  1300)     10477.9  Rx         0150  8  00 00 00 00 00 00 00 00 
  1301)     10478.4  Rx         07A3  8  02 01 01 08 00 00 00 00 
  1302)     10536.2  Tx         0602  8  00 00 00 00 00 00 01 00 
  1303)     10635.6  Rx         0300  8  EF 0C E4 0C E4 0C E4 0C 
  1304)     10636.4  Tx         0602  8  00 00 00 00 00 00 01 00 
  1305)     10646.1  Rx         0301  8  E4 0C E4 0C E4 0C E4 0C 
  1306)     10656.7  Rx         0302  8  E4 0C E4 0C E4 0C E4 0C 
  1307)     10667.0  Rx         0303  8  E4 0C E4 0C E4 0C E4 0C 
  1308)     10677.4  Rx         0304  8  E4 0C E4 0C B7 0C B7 0C 
  1309)     10687.8  Rx         0306  8  19 19 19 19 19 19 19 19 
  1310)     10698.5  Rx         0307  8  19 19 19 19 19 19 19 19 
  1311)     10708.7  Rx         0305  8  00 00 00 00 00 00 00 00 
  1312)     10735.9  Tx         0602  8  00 00 00 00 00 00 01 00 
  1313)     10774.6  Rx         0107  8  02 88 01 C2 00 00 00 00 
  1314)     10775.1  Rx         0106  8  00 00 00 00 00 00 00 00 
  1315)     10775.6  Rx         0258  8  00 00 00 00 00 00 00 00 
  1316)     10776.1  Rx         0259  8  00 00 00 00 00 00 00 00 
  1317)     10776.6  Rx         0260  8  00 0C 00 00 00 00 00 00 
  1318)     10777.1  Rx         07A1  8  02 01 00 00 00 08 01 01 
  1319)     10777.6  Rx         07A2  8  02 03 02 01 00 00 00 00 
  1320)     10778.1  Rx         012F  8  02 02 01 00 00 00 00 00 
  1321)     10778.5  Rx         0110  8  18 79 00 01 1D F7 FF FF 
  1322)     10779.0  Rx         0109  8  B6 24 10 27 03 00 52 02 
  1323)     10779.5  Rx         012C  8  56 81 E8 80 6E 00 01 00 
  1324)     10780.0  Rx         0156  8  14 0A B8 0B 00 00 00 00 
  1325)     10780.5  Rx         011C  8  84 03 84 03 00 00 00 00 
  1326)     10780.9  Rx         012A  8  40 06 B2 07 00 00 08 00 
  1327)     10781.4  Rx         0108  8  10 0E 41 00 2D 00 CD 00 
  1328)     10781.9  Rx         012B  8  00 00 1E 21 1D 21 00 00 
  1329)     10782.4  Rx         012E  8  00 00 00 00 00 00 00 00 
  1330)     10782.8  Rx         0113  8  56 81 E8 80 E8 80 E8 80 
  1331)     10783.3  Rx         0114  8  E8 80 E8 80 E8 80 E8 80 
  1332)     10783.8  Rx         0115  8  E8 80 E8 80 E8 80 E8 80 
  1333)     10784.3  Rx         0116  8  E8 80 E8 80 E8 80 E8 80 
  1334)     10784.7  Rx         0117  8  E8 80 E8 80 00 00 00 00 
  1335)     10785.2  Rx         0112  8  19 19 19 19 19 19 54 24 
  1336)     10785.7  Rx         014E  8  19 19 00 19 19 00 00 00 
  1337)     10786.1  Rx         012D  8  19 19 19 19 19 19 00 00 
  1338)     10786.6  Rx         0150  8  01 00 00 00 00 00 00 00 
  1339)     10787.1  Rx         07A3  8  02 01 01 08 00 00 00 00 
  1340)     10836.7  Tx         0602  8  00 00 00 00 00 00 01 00 
  1341)     10936.0  Tx         0602  8  00 00 00 00 00 00 01 00 
  1342)     11009.1  Rx         0300  8  EF 0C E4 0C E4 0C E4 0C 
  1343)     11019.7  Rx         0301  8  E4 0C E4 0C E4 0C E4 0C 
  1344)     11030.1  Rx         0302  8  E4 0C E4 0C E4 0C E4 0C 
  1345)     11036.3  Tx         0602  8  00 00 00 00 00 00 01 00 
  1346)     11040.5  Rx         0303  8  E4 0C E4 0C E4 0C E4 0C 
  1347)     11050.7  Rx         0304  8  E4 0C E4 0C B7 0C B8 0C 
  1348)     11061.4  Rx         0306  8  19 19 19 19 19 19 19 19 
  1349)     11065.8  Rx         0107  8  02 88 01 C2 00 00 00 00 
  1350)     11066.4  Rx         0106  8  00 00 00 00 00 00 00 00 
  1351)     11066.8  Rx         0258  8  00 00 00 00 00 00 00 00 
  1352)     11067.3  Rx         0259  8  00 00 00 00 00 00 00 00 
  1353)     11067.9  Rx         0260  8  00 0C 00 00 00 00 00 00 
  1354)     11068.3  Rx         07A1  8  02 01 00 00 00 08 01 01 
  1355)     11068.8  Rx         07A2  8  02 03 02 01 00 00 00 00 
  1356)     11069.5  Rx         07A3  8  02 01 01 08 00 00 00 00 
  1357)     11070.0  Rx         012F  8  02 02 01 00 00 00 00 00 
  1358)     11070.5  Rx         0110  8  18 79 00 01 E4 F4 FF FF 
  1359)     11071.0  Rx         0109  8  B6 24 10 27 03 00 52 02 
  1360)     11071.5  Rx         012C  8  56 81 E8 80 6E 00 01 00 
  1361)     11071.8  Rx         0307  8  19 19 19 19 19 19 19 19 
  1362)     11072.0  Rx         011C  8  84 03 84 03 00 00 00 00 
  1363)     11072.5  Rx         012A  8  40 06 B2 07 00 00 08 00 
  1364)     11072.9  Rx         0108  8  10 0E 41 00 2D 00 CD 00 
  1365)     11073.4  Rx         012B  8  00 00 20 21 20 21 00 00 
  1366)     11073.9  Rx         012E  8  00 00 00 00 00 00 00 00 
  1367)     11074.4  Rx         0113  8  56 81 E8 80 E8 80 E8 80 
  1368)     11074.9  Rx         0114  8  E8 80 E8 80 E8 80 E8 80 
  1369)     11075.3  Rx         0115  8  E8 80 E8 80 E8 80 E8 80 
  1370)     11075.7  Rx         0116  8  E8 80 E8 80 E8 80 E8 80 
  1371)     11076.3  Rx         0117  8  E8 80 E8 80 00 00 00 00 
  1372)     11076.7  Rx         0112  8  19 19 19 19 19 19 54 24 
  1373)     11077.2  Rx         014E  8  19 19 00 19 19 00 00 00 
  1374)     11077.6  Rx         012D  8  19 19 19 19 19 19 00 00 
  1375)     11078.1  Rx         0150  8  01 00 00 00 00 00 00 00 
  1376)     11078.6  Rx         0156  8  14 0A B8 0B 00 00 00 00 
  1377)     11082.3  Rx         0305  8  00 00 00 00 00 00 00 00 
  1378)     11135.9  Tx         0602  8  00 00 00 00 00 00 01 00 
  1379)     11236.8  Tx         0602  8  00 00 00 00 00 00 01 00 
  1380)     11336.4  Tx         0602  8  00 00 00 00 00 00 01 00 
  1381)     11373.2  Rx         0107  8  02 88 01 C2 00 00 00 00 
  1382)     11373.8  Rx         0106  8  00 00 00 00 00 00 00 00 
  1383)     11374.3  Rx         0258  8  00 00 00 00 00 00 00 00 
  1384)     11374.7  Rx         0259  8  00 00 00 00 00 00 00 00 
  1385)     11375.3  Rx         0260  8  00 0C 00 00 00 00 00 00 
  1386)     11375.7  Rx         07A1  8  02 01 00 00 00 08 01 01 
  1387)     11376.2  Rx         07A2  8  02 03 02 01 00 00 00 00 
  1388)     11376.7  Rx         012F  8  02 02 01 00 00 00 00 00 
  1389)     11377.2  Rx         0110  8  18 79 00 01 1D F7 FF FF 
  1390)     11377.6  Rx         0109  8  B6 24 10 27 03 00 52 02 
  1391)     11378.2  Rx         012C  8  56 81 E8 80 6E 00 01 00 
  1392)     11378.6  Rx         0156  8  14 0A B8 0B 00 00 00 00 
  1393)     11379.1  Rx         011C  8  84 03 84 03 00 00 00 00 
  1394)     11379.6  Rx         012A  8  40 06 B2 07 00 00 08 00 
  1395)     11380.1  Rx         0108  8  10 0E 41 00 2D 00 CD 00 
  1396)     11380.5  Rx         012B  8  00 00 23 21 22 21 00 00 
  1397)     11381.0  Rx         012E  8  00 00 00 00 00 00 00 00 
  1398)     11381.5  Rx         0113  8  56 81 E8 80 E8 80 E8 80 
  1399)     11381.9  Rx         0114  8  E8 80 E8 80 E8 80 E8 80 
  1400)     11382.4  Rx         0115  8  E8 80 E8 80 E8 80 E8 80 
  1401)     11383.0  Rx         0300  8  EF 0C E4 0C E4 0C E4 0C 
  1402)     11383.0  Rx         0116  8  E8 80 E8 80 E8 80 E8 80 
  1403)     11383.4  Rx         0117  8  E8 80 E8 80 00 00 00 00 
  1404)     11383.8  Rx         0112  8  19 19 19 19 19 19 54 24 
  1405)     11384.3  Rx         014E  8  19 19 00 19 19 00 00 00 
  1406)     11384.8  Rx         012D  8  19 19 19 19 19 19 00 00 
  1407)     11385.2  Rx         0150  8  00 00 00 00 00 00 00 00 
  1408)     11386.2  Rx         07A3  8  02 01 01 08 00 00 00 00 
  1409)     11393.6  Rx         0301  8  E4 0C E4 0C E4 0C E4 0C 
  1410)     11404.1  Rx         0302  8  E4 0C E4 0C E4 0C E4 0C 
  1411)     11414.7  Rx         0303  8  E4 0C E4 0C E4 0C E4 0C 
  1412)     11425.2  Rx         0304  8  E4 0C E4 0C B7 0C B8 0C 
  1413)     11435.9  Rx         0306  8  19 19 19 19 19 19 19 19 
  1414)     11436.8  Tx         0602  8  00 00 00 00 00 00 01 00 
  1415)     11446.6  Rx         0307  8  19 19 19 19 19 19 19 19 
  1416)     11457.0  Rx         0305  8  00 00 00 00 00 00 00 00 
  1417)     11536.1  Tx         0602  8  00 00 00 00 00 00 01 00 
  1418)     11636.1  Tx         0602  8  00 00 00 00 00 00 01 00 
  1419)     11663.2  Rx         0107  8  02 88 01 C2 00 00 00 00 
  1420)     11663.7  Rx         0106  8  00 00 00 00 00 00 00 00 
  1421)     11664.2  Rx         0258  8  00 00 00 00 00 00 00 00 
  1422)     11664.7  Rx         0259  8  00 00 00 00 00 00 00 00 
  1423)     11665.2  Rx         0260  8  00 0C 00 00 00 00 00 00 
  1424)     11665.7  Rx         07A1  8  02 01 00 00 00 08 01 01 
  1425)     11666.1  Rx         07A2  8  02 03 02 01 00 00 00 00 
  1426)     11666.7  Rx         012F  8  02 02 01 00 00 00 00 00 
  1427)     11667.1  Rx         0110  8  18 79 00 01 1D F7 FF FF 
  1428)     11667.6  Rx         0109  8  B6 24 10 27 03 00 52 02 
  1429)     11668.1  Rx         012C  8  56 81 E8 80 6E 00 01 00 
  1430)     11668.6  Rx         0156  8  14 0A B8 0B 00 00 00 00 
  1431)     11669.0  Rx         011C  8  84 03 84 03 00 00 00 00 
  1432)     11669.5  Rx         012A  8  40 06 B2 07 00 00 08 00 
  1433)     11670.0  Rx         0108  8  10 0E 41 00 2D 00 CD 00 
  1434)     11670.5  Rx         012B  8  00 00 25 21 24 21 00 00 
  1435)     11671.0  Rx         012E  8  00 00 00 00 00 00 00 00 
  1436)     11671.4  Rx         0113  8  56 81 E8 80 E8 80 E8 80 
  1437)     11671.9  Rx         0114  8  E8 80 E8 80 E8 80 E8 80 
  1438)     11672.4  Rx         0115  8  E8 80 E8 80 E8 80 E8 80 
  1439)     11672.8  Rx         0116  8  E8 80 E8 80 E8 80 E8 80 
  1440)     11673.3  Rx         0117  8  E8 80 E8 80 00 00 00 00 
  1441)     11673.8  Rx         0112  8  19 19 19 19 19 19 54 24 
  1442)     11674.3  Rx         014E  8  19 19 00 19 19 00 00 00 
  1443)     11674.7  Rx         012D  8  19 19 19 19 19 19 00 00 
  1444)     11675.2  Rx         0150  8  00 00 00 00 00 00 00 00 
  1445)     11675.7  Rx         07A3  8  02 01 01 08 00 00 00 00 
  1446)     11736.3  Tx         0602  8  00 00 00 00 00 00 01 00 
  1447)     11757.5  Rx         0300  8  EF 0C E4 0C E4 0C E4 0C 
  1448)     11768.1  Rx         0301  8  E4 0C E4 0C E4 0C E4 0C 
  1449)     11778.9  Rx         0302  8  E4 0C E4 0C E4 0C E4 0C 
  1450)     11789.6  Rx         0303  8  E4 0C E4 0C E4 0C E4 0C 
  1451)     11800.3  Rx         0304  8  E4 0C E4 0C B7 0C B8 0C 
  1452)     11810.8  Rx         0306  8  19 19 19 19 19 19 19 19 
  1453)     11821.3  Rx         0307  8  19 19 19 19 19 19 19 19 
  1454)     11832.0  Rx         0305  8  00 00 00 00 00 00 00 00 
  1455)     11836.0  Tx         0602  8  00 00 00 00 00 00 01 00 
  1456)     11936.0  Tx         0602  8  00 00 00 00 00 00 01 00 
  1457)     11976.6  Rx         0107  8  02 88 01 C2 00 00 00 00 
  1458)     11977.1  Rx         0106  8  00 00 00 00 00 00 00 00 
  1459)     11977.7  Rx         0258  8  00 00 00 00 00 00 00 00 
  1460)     11978.2  Rx         0259  8  00 00 00 00 00 00 00 00 
  1461)     11978.6  Rx         0260  8  00 0C 00 00 00 00 00 00 
  1462)     11979.1  Rx         07A1  8  02 01 00 00 00 08 01 01 
  1463)     11979.6  Rx         07A2  8  02 03 02 01 00 00 00 00 
  1464)     11980.1  Rx         012F  8  02 02 01 00 00 00 00 00 
  1465)     11980.6  Rx         0110  8  18 79 00 01 E4 F4 FF FF 
  1466)     11981.1  Rx         0109  8  B6 24 10 27 03 00 52 02 
  1467)     11981.5  Rx         012C  8  56 81 E8 80 6E 00 01 00 
  1468)     11982.0  Rx         0156  8  14 0A B8 0B 00 00 00 00 
  1469)     11982.5  Rx         011C  8  84 03 84 03 00 00 00 00 
  1470)     11983.0  Rx         012A  8  40 06 B2 07 00 00 08 00 
  1471)     11983.5  Rx         0108  8  10 0E 41 00 2D 00 CD 00 
  1472)     11983.9  Rx         012B  8  00 00 27 21 26 21 00 00 
  1473)     11984.4  Rx         012E  8  00 00 00 00 00 00 00 00 
  1474)     11984.9  Rx         0113  8  56 81 E8 80 E8 80 E8 80 
  1475)     11985.4  Rx         0114  8  E8 80 E8 80 E8 80 E8 80 
  1476)     11985.8  Rx         0115  8  E8 80 E8 80 E8 80 E8 80 
  1477)     11986.3  Rx         0116  8  E8 80 E8 80 E8 80 E8 80 
  1478)     11986.7  Rx         0117  8  E8 80 E8 80 00 00 00 00 
  1479)     11987.2  Rx         0112  8  19 19 19 19 19 19 54 24 
  1480)     11987.7  Rx         014E  8  19 19 00 19 19 00 00 00 
  1481)     11988.1  Rx         012D  8  19 19 19 19 19 19 00 00 
  1482)     11988.7  Rx         0150  8  00 00 00 00 00 00 00 00 
  1483)     11989.1  Rx         07A3  8  02 01 01 08 00 00 00 00 
  1484)     12037.1  Tx         0602  8  00 00 00 00 00 00 01 00 
  1485)     12132.7  Rx         0300  8  EF 0C E4 0C E4 0C E4 0C 
  1486)     12136.8  Tx         0602  8  00 00 00 00 00 00 01 00 
  1487)     12143.1  Rx         0301  8  E4 0C E4 0C E4 0C E4 0C 
  1488)     12153.5  Rx         0302  8  E4 0C E4 0C E4 0C E4 0C 
  1489)     12164.0  Rx         0303  8  E4 0C E4 0C E4 0C E4 0C 
  1490)     12174.4  Rx         0304  8  E4 0C E4 0C B8 0C B8 0C 
  1491)     12184.9  Rx         0306  8  19 19 19 19 19 19 19 19 
  1492)     12195.6  Rx         0307  8  19 19 19 19 19 19 19 19 
  1493)     12206.4  Rx         0305  8  00 00 00 00 00 00 00 00 
  1494)     12236.2  Tx         0602  8  00 00 00 00 00 00 01 00 
  1495)     12261.8  Rx         0107  8  02 88 01 C2 00 00 00 00 
  1496)     12262.3  Rx         0106  8  00 00 00 00 00 00 00 00 
  1497)     12262.8  Rx         0258  8  00 00 00 00 00 00 00 00 
  1498)     12263.3  Rx         0259  8  00 00 00 00 00 00 00 00 
  1499)     12263.8  Rx         0260  8  00 0C 00 00 00 00 00 00 
  1500)     12264.3  Rx         07A1  8  02 01 00 00 00 08 01 01 
  1501)     12264.8  Rx         07A2  8  02 03 02 01 00 00 00 00 
  1502)     12265.3  Rx         012F  8  02 02 01 00 00 00 00 00 
  1503)     12265.7  Rx         0110  8  18 79 00 01 E4 F4 FF FF 
  1504)     12266.2  Rx         0109  8  B6 24 10 27 03 00 52 02 
  1505)     12266.7  Rx         012C  8  56 81 E8 80 6E 00 01 00 
  1506)     12267.1  Rx         0156  8  14 0A B8 0B 00 00 00 00 
  1507)     12267.7  Rx         011C  8  84 03 84 03 00 00 00 00 
  1508)     12268.1  Rx         012A  8  40 06 B2 07 00 00 08 00 
